(1784046014.002055) can0 020#0000072b
(1784046014.002273) can0 230#0000000100003a
(1784046014.002507) can0 025#00000fff787878a3
(1784046014.002743) can0 024#020001f8420280eb
(1784046014.008073) can0 2a4#00000000ab
(1784046014.008509) can0 260#000000000000006a
(1784046014.011259) can0 127#00100008000fbe15
(1784046014.014078) can0 020#0000072b
(1784046014.014323) can0 0b4#00000000000000bc
(1784046014.014555) can0 025#00000fff787878a3
(1784046014.014801) can0 024#020001f8420280eb
(1784046014.020148) can0 224#0000000000000008
(1784046014.020522) can0 1c4#00000000000000cd
(1784046014.022452) can0 245#000000004c
(1784046014.024334) can0 3a0#000000000000004c
(1784046014.024497) can0 247#0600ff0000
(1784046014.026104) can0 020#0000072b
(1784046014.026315) can0 230#0000000100003a
(1784046014.026553) can0 025#00000fff787878a3
(1784046014.026802) can0 024#020001f7420280ea
(1784046014.027622) can0 127#00100008000fbe15
(1784046014.028573) can0 260#000000000000006a
(1784046014.032232) can0 320#0000000000080033
(1784046014.038095) can0 020#0000072b
(1784046014.038337) can0 0b4#00000000000000bc
(1784046014.038580) can0 025#00000fff787878a3
(1784046014.038811) can0 024#020001f7420280ea
(1784046014.039064) can0 620#1000ffffb0100050
(1784046014.041044) can0 423#00
(1784046014.044010) can0 127#00100008000fbe15
(1784046014.044248) can0 1c4#00000000000000cd
(1784046014.044504) can0 224#0000000000000008
(1784046014.046022) can0 245#000000004c
(1784046014.048042) can0 247#0600ff0000
(1784046014.048227) can0 361#80000000
(1784046014.048544) can0 260#000000000000006a
(1784046014.050161) can0 020#0000072b
(1784046014.050390) can0 230#0000000100003a
(1784046014.050633) can0 025#00000fff787878a3
(1784046014.050860) can0 024#020001f7420280ea
(1784046014.056292) can0 2a4#00000000ab
(1784046014.060393) can0 127#00100008000fbe15
(1784046014.062274) can0 020#0000072b
(1784046014.062516) can0 0b4#00000000000000bc
(1784046014.062752) can0 024#020001f7420280ea
(1784046014.062989) can0 025#00000fff787878a3
(1784046014.063239) can0 45c#4002002101000000
(1784046014.067638) can0 1c4#00000000000000cd
(1784046014.068359) can0 224#0000000000000008
(1784046014.068616) can0 260#000000000000006a
(1784046014.069542) can0 245#000000004c
(1784046014.071591) can0 247#0600ff0000
(1784046014.074316) can0 020#0000072b
(1784046014.074502) can0 230#0000000100003a
(1784046014.074751) can0 024#020001f7420280ea
(1784046014.074988) can0 025#00000fff787878a3
(1784046014.076769) can0 127#00100008000fbe15
(1784046014.080406) can0 320#0000000000080033
(1784046014.081623) can0 4ac#98000000cd00d3a0
(1784046014.084705) can0 6c0#e40080a000000000
(1784046014.086404) can0 020#0000072b
(1784046014.086639) can0 0b4#00000000000000bc
(1784046014.086883) can0 025#00000fff787878a3
(1784046014.087634) can0 024#020001f7420280ea
(1784046014.088559) can0 260#000000000000006a
(1784046014.091178) can0 1c4#00000000000000cd
(1784046014.092469) can0 224#0000000000000008
(1784046014.093141) can0 127#00100008000fbe15
(1784046014.093323) can0 245#000000004c
(1784046014.095162) can0 247#0600ff0000
(1784046014.098470) can0 020#0000072b
(1784046014.098688) can0 230#0000000100003a
(1784046014.098930) can0 025#00000fff787878a3
(1784046014.099650) can0 024#020001f7420280ea
(1784046014.104492) can0 2a4#00000000ab
(1784046014.108481) can0 260#000000000000006a
(1784046014.109524) can0 127#00100008000fbe15
(1784046014.110468) can0 020#0000072b
(1784046014.110721) can0 0b4#00000000000000bc
(1784046014.110964) can0 025#00000fff787878a3
(1784046014.111620) can0 024#020001f7420280ea
(1784046014.112521) can0 361#80000000
(1784046014.114742) can0 1c4#00000000000000cd
(1784046014.116569) can0 224#0000000000000008
(1784046014.116733) can0 245#000000004c
(1784046014.118688) can0 247#0600ff0000
(1784046014.121474) can0 389#0020000000000000
(1784046014.122508) can0 020#0000072b
(1784046014.122725) can0 230#0000000100003a
(1784046014.122969) can0 025#00000fff787878a3
(1784046014.123210) can0 394#0000
(1784046014.123461) can0 3a0#000000000000004c
(1784046014.123692) can0 024#020001f7420280ea
(1784046014.124500) can0 458#5804001200000000
(1784046014.125905) can0 127#00100008000fbe15
(1784046014.128494) can0 260#000000000000006a
(1784046014.128722) can0 320#0000000000080033
(1784046014.134551) can0 020#0000072b
(1784046014.134787) can0 0b4#00000000000000bc
(1784046014.135031) can0 025#00000fff787878a3
(1784046014.135277) can0 3b7#0000000000000008
(1784046014.135525) can0 4dd#1e00110200000000
(1784046014.135766) can0 024#020001f7420280ea
(1784046014.138279) can0 1c4#00000000000000cd
(1784046014.140197) can0 245#000000004c
(1784046014.140693) can0 224#0000000000000008
(1784046014.142283) can0 127#00100008000fbe15
(1784046014.142460) can0 247#0600ff0000
(1784046014.145353) can0 3f9#702c5602000000f8
(1784046014.146582) can0 020#0000072b
(1784046014.146792) can0 230#0000000100003a
(1784046014.147042) can0 025#00000fff787878a3
(1784046014.147293) can0 353#0000
(1784046014.147616) can0 024#020001f7420280ea
(1784046014.148571) can0 260#000000000000006a
(1784046014.152758) can0 2a4#00000000ab
(1784046014.158666) can0 127#00100008000fbe15
(1784046014.158810) can0 020#0000072b
(1784046014.159068) can0 0b4#00000000000000bc
(1784046014.159314) can0 025#00000fff828282c1
(1784046014.159599) can0 024#020001f7420280ea
(1784046014.161849) can0 1c4#00000000000000cd
(1784046014.163704) can0 440#4202001000000000
(1784046014.163868) can0 245#000000004c
(1784046014.164807) can0 224#0000000000000008
(1784046014.165767) can0 247#0600ff0000
(1784046014.168482) can0 260#000000000000006a
(1784046014.170728) can0 020#0000072b
(1784046014.170938) can0 230#0000000100003a
(1784046014.171183) can0 025#00000fff6e6e6e85
(1784046014.171598) can0 024#020001f7420280ea
(1784046014.175058) can0 127#00100008000fbe15
(1784046014.176838) can0 320#0000000000080033
(1784046014.177047) can0 361#80000000
(1784046014.182753) can0 020#0000072b
(1784046014.182991) can0 0b4#00000000000000bc
(1784046014.183239) can0 025#00000fff787878a3
(1784046014.183591) can0 024#020001f7420280ea
(1784046014.185387) can0 1c4#00000000000000cd
(1784046014.187265) can0 245#000000004c
(1784046014.188473) can0 260#000000000000006a
(1784046014.188870) can0 224#0000000000000008
(1784046014.189343) can0 247#0600ff0000
(1784046014.191420) can0 127#00100008000fbe15
(1784046014.194830) can0 020#0000072b
(1784046014.195036) can0 230#0000000100003a
(1784046014.195292) can0 025#00000fff828282c1
(1784046014.195583) can0 024#020001f7420280ea
(1784046014.200857) can0 2a4#00000000ab
(1784046014.201716) can0 38a#0000000000
(1784046014.206864) can0 020#0000072b
(1784046014.207097) can0 0b4#00000000000000bc
(1784046014.207338) can0 025#00000fff787878a3
(1784046014.207583) can0 024#020001f7420280ea
(1784046014.207852) can0 127#00100008000fbe15
(1784046014.208696) can0 260#000000000000006a
(1784046014.208942) can0 1c4#00000000000000cd
(1784046014.210811) can0 245#000000004c
(1784046014.212916) can0 224#0000000000000008
(1784046014.213084) can0 247#0600ff0000
(1784046014.218908) can0 020#0000072b
(1784046014.219113) can0 230#0000000100003a
(1784046014.219360) can0 025#00000fff787878a3
(1784046014.219605) can0 024#020001f7420280ea
(1784046014.224194) can0 127#00100008000fbe15
(1784046014.224969) can0 320#0000000000080033
(1784046014.225332) can0 3a0#000000000000004c
(1784046014.228470) can0 260#000000000000006a
(1784046014.230929) can0 020#0000072b
(1784046014.231156) can0 0b4#00000000000000bc
(1784046014.231406) can0 025#00000fff787878a3
(1784046014.231664) can0 024#020001f7420280ea
(1784046014.232483) can0 1c4#00000000000000cd
(1784046014.234377) can0 245#000000004c
(1784046014.236403) can0 247#0600ff0000
(1784046014.236962) can0 224#0000000000000008
(1784046014.240557) can0 127#00100008000fbe15
(1784046014.241516) can0 361#80000000
(1784046014.242980) can0 020#0000072b
(1784046014.243188) can0 230#0000000100003a
(1784046014.243440) can0 025#00000fff787878a3
(1784046014.243673) can0 024#020001f8420280eb
(1784046014.248453) can0 260#000000000000006a
(1784046014.249104) can0 2a4#00000000ab
(1784046014.255070) can0 020#0000072b
(1784046014.255304) can0 0b4#00000000000000bc
(1784046014.255534) can0 025#00000fff787878a3
(1784046014.255775) can0 024#020001f8420280eb
(1784046014.256033) can0 1c4#00000000000000cd
(1784046014.256910) can0 127#00100008000fbe15
(1784046014.257887) can0 245#000000004c
(1784046014.259925) can0 247#0600ff0000
(1784046014.261191) can0 224#0000000000000008
(1784046014.263353) can0 442#4302000002000000
(1784046014.267079) can0 020#0000072b
(1784046014.267306) can0 230#0000000100003a
(1784046014.267544) can0 025#00000fff787878a3
(1784046014.267786) can0 024#020001f8420280eb
(1784046014.268452) can0 260#000000000000006a
(1784046014.273275) can0 320#0000000000080033
(1784046014.273519) can0 127#00100008000fbe15
(1784046014.279273) can0 020#0000072b
(1784046014.279521) can0 0b4#00000000000000bc
(1784046014.279761) can0 024#020001f7420280ea
(1784046014.279999) can0 025#00000fff787878a3
(1784046014.280248) can0 1c4#00000000000000cd
(1784046014.281419) can0 245#000000004c
(1784046014.283491) can0 247#0600ff0000
(1784046014.285339) can0 224#0000000000000008
(1784046014.286980) can0 4c6#0700020000000000
(1784046014.288417) can0 260#000000000000006a
(1784046014.289666) can0 127#00100008000fbe15
(1784046014.291358) can0 020#0000072b
(1784046014.291584) can0 230#0000000100003a
(1784046014.291823) can0 025#00000fff787878a3
(1784046014.292543) can0 024#020001f7420280ea
(1784046014.297343) can0 2a4#00000000ab
(1784046014.303141) can0 1c4#00000000000000cd
(1784046014.303429) can0 020#0000072b
(1784046014.303678) can0 0b4#00000000000000bc
(1784046014.303916) can0 025#00000fff787878a3
(1784046014.304539) can0 024#020001f7420280ea
(1784046014.304964) can0 245#000000004c
(1784046014.306046) can0 127#00100008000fbe15
(1784046014.306231) can0 361#80000000
(1784046014.307026) can0 247#0600ff0000
(1784046014.308440) can0 260#000000000000006a
(1784046014.309582) can0 224#0000000000000008
(1784046014.315488) can0 020#0000072b
(1784046014.315714) can0 230#0000000100003a
(1784046014.315953) can0 025#00000fff787878a3
(1784046014.316537) can0 024#020001f8420280eb
(1784046014.321253) can0 630#1700000000000000
(1784046014.321501) can0 3a0#000000000000004c
(1784046014.321749) can0 320#0000000000080033
(1784046014.322423) can0 127#00100008000fbe15
(1784046014.326678) can0 1c4#00000000000000cd
(1784046014.327508) can0 020#0000072b
(1784046014.327756) can0 0b4#00000000000000bc
(1784046014.327995) can0 025#00000fff787878a3
(1784046014.328494) can0 260#000000000000006a
(1784046014.328741) can0 024#01ff01f7420280e8
(1784046014.328924) can0 245#000000004c
(1784046014.330279) can0 632#8000000000000000
(1784046014.330557) can0 247#0600ff0000
(1784046014.333665) can0 224#0000000000000008
(1784046014.338615) can0 620#1000ffffb0100050
(1784046014.338860) can0 127#00100008000fbe15
(1784046014.339494) can0 635#8300000000000000
(1784046014.339664) can0 020#0000072b
(1784046014.339890) can0 230#0000000100003a
(1784046014.340135) can0 025#00000fff828282c1
(1784046014.340533) can0 024#01ff01f8420280e9
(1784046014.343254) can0 4c8#0900000000000000
(1784046014.345618) can0 2a4#00000000ab
(1784046014.345862) can0 4c3#0300000100000000
(1784046014.348374) can0 260#000000000000006a
(1784046014.350246) can0 1c4#00000000000000cd
(1784046014.351606) can0 020#0000072b
(1784046014.351852) can0 0b4#00000000000000bc
(1784046014.352088) can0 025#00000fff6e6e6e85
(1784046014.352275) can0 245#000000004c
(1784046014.352527) can0 024#01ff01f7420280e8
(1784046014.354106) can0 247#0600ff0000
(1784046014.355180) can0 127#00100008000fbe15
(1784046014.357698) can0 224#0000000000000008
(1784046014.361465) can0 2fc#8000000000000000
(1784046014.363717) can0 020#0000072b
(1784046014.363943) can0 230#0000000100003a
(1784046014.364187) can0 025#00000fff828282c1
(1784046014.364518) can0 024#01ff01f7420280e8
(1784046014.368367) can0 260#000000000000006a
(1784046014.369783) can0 320#0000000000080033
(1784046014.370462) can0 361#80000000
(1784046014.371561) can0 127#00100008000fbe15
(1784046014.373783) can0 1c4#00000000000000cd
(1784046014.375596) can0 245#000000004c
(1784046014.375770) can0 020#0000072b
(1784046014.376019) can0 0b4#00000000000000bc
(1784046014.376257) can0 025#00000fff787878a3
(1784046014.376513) can0 024#01ff01f7420280e8
(1784046014.377669) can0 247#0600ff0000
(1784046014.381465) can0 434#414000c000000000
(1784046014.381839) can0 224#0000000000000008
(1784046014.384305) can0 6c0#e40080a000000000
(1784046014.387829) can0 020#0000072b
(1784046014.388074) can0 127#00100008000fbe15
(1784046014.388312) can0 025#00000fff787878a3
(1784046014.388554) can0 024#01ff01f8420280e9
(1784046014.388780) can0 230#0000000100003a
(1784046014.389028) can0 260#000000000000006a
(1784046014.390007) can0 499#d300270000000000
(1784046014.391000) can0 49a#00162b0061a01a70
(1784046014.393322) can0 380#0000000000003900
(1784046014.393614) can0 3a1#0000002040000000
(1784046014.393806) can0 2a4#00000000ab
(1784046014.394051) can0 3b0#00c3005200000000
(1784046014.394297) can0 49b#00a0252000004000
(1784046014.395107) can0 3f9#702c5602000000f8
(1784046014.396109) can0 49d#646300d2a332281b
(1784046014.397052) can0 353#0000
(1784046014.397349) can0 1c4#00000000000000cd
(1784046014.398201) can0 4a8#0008000000000004
(1784046014.398589) can0 63b#16003a8a000011ed
(1784046014.399143) can0 245#000000004c
(1784046014.399391) can0 4ae#008000c00138024b
(1784046014.399851) can0 020#0000072b
(1784046014.400100) can0 0b4#00000000000000bc
(1784046014.400338) can0 025#00000fff787878a3
(1784046014.400582) can0 024#01ff01f7420280e8
(1784046014.401233) can0 247#0600ff0000
(1784046014.401483) can0 4af#0044d00000000000
(1784046014.401716) can0 435#800505ffe02f4003
(1784046014.404361) can0 127#00100008000fbe15
(1784046014.404575) can0 389#0020000000000000
(1784046014.405965) can0 224#0000000000000008
(1784046014.406193) can0 4a0#06b8000000000000
(1784046014.406441) can0 4a1#00fe80808020c102
(1784046014.406676) can0 4a2#190000c90035aa01
(1784046014.407482) can0 458#5804001200000000
(1784046014.408437) can0 260#000000000000006a
(1784046014.410486) can0 443#4d02002005000000
(1784046014.411883) can0 020#0000072b
(1784046014.412087) can0 230#0000000100003a
(1784046014.412344) can0 025#00000fff787878a3
(1784046014.412583) can0 024#01ff01f7420280e8
(1784046014.413547) can0 399#00000000000000
(1784046014.417980) can0 320#0000000000080033
(1784046014.419775) can0 3d3#0000
(1784046014.420713) can0 127#00100008000fbe15
(1784046014.420952) can0 1c4#00000000000000cd
(1784046014.422735) can0 245#000000004c
(1784046014.423329) can0 3a0#000000000000004c
(1784046014.423454) can0 394#0000
(1784046014.423709) can0 610#20000064c0fffd40
(1784046014.423895) can0 020#0000072b
(1784046014.424156) can0 0b4#00000000000000bc
(1784046014.424391) can0 025#00000fff787878a3
(1784046014.424639) can0 024#01ff01f8420280e9
(1784046014.424824) can0 247#0600ff0000
(1784046014.428393) can0 260#000000000000006a
(1784046014.430034) can0 224#0000000000000008
(1784046014.434999) can0 361#80000000
(1784046014.435944) can0 020#0000072b
(1784046014.436150) can0 230#0000000100003a
(1784046014.436402) can0 025#00000fff787878a3
(1784046014.436641) can0 024#01ff01f7420280e8
(1784046014.436897) can0 3b7#0000000000000008
(1784046014.437139) can0 127#00100008000fbe15
(1784046014.437378) can0 498#c1000000614f0000
(1784046014.438326) can0 49c#400d09a800502c00
(1784046014.440367) can0 4a7#00016c25000400c8
(1784046014.442018) can0 2a4#00000000ab
(1784046014.442420) can0 4ad#0000005d9d0001a0
(1784046014.444483) can0 1c4#00000000000000cd
(1784046014.446265) can0 245#000000004c
(1784046014.447976) can0 020#0000072b
(1784046014.448234) can0 0b4#00000000000000bc
(1784046014.448461) can0 025#00000fff787878a3
(1784046014.448698) can0 024#020001f7420280ea
(1784046014.448881) can0 247#0600ff0000
(1784046014.449134) can0 260#000000000000006a
(1784046014.453470) can0 127#00100008000fbe15
(1784046014.454171) can0 224#0000000000000008
(1784046014.455615) can0 3b9#a30000
(1784046014.460109) can0 020#0000072b
(1784046014.460331) can0 230#0000000100003a
(1784046014.460576) can0 024#020001f7420280ea
(1784046014.460811) can0 025#00000fff787878a3
(1784046014.466258) can0 320#0000000000080033
(1784046014.468021) can0 1c4#00000000000000cd
(1784046014.468352) can0 260#000000000000006a
(1784046014.469856) can0 127#00100008000fbe15
(1784046014.470030) can0 245#000000004c
(1784046014.471867) can0 247#0600ff0000
(1784046014.472271) can0 020#0000072b
(1784046014.472517) can0 0b4#00000000000000bc
(1784046014.472760) can0 025#00000fff787878a3
(1784046014.473508) can0 024#020001f7420280ea
(1784046014.478348) can0 224#0000000000000008
(1784046014.484341) can0 020#0000072b
(1784046014.484549) can0 230#0000000100003a
(1784046014.484794) can0 025#00000fff787878a3
(1784046014.485500) can0 024#01ff01f7420280e8
(1784046014.486240) can0 127#00100008000fbe15
(1784046014.486463) can0 3b6#8064031000020100
(1784046014.488386) can0 260#000000000000006a
(1784046014.490369) can0 2a4#00000000ab
(1784046014.491631) can0 1c4#00000000000000cd
(1784046014.493354) can0 245#000000004c
(1784046014.495424) can0 247#0600ff0000
(1784046014.496426) can0 020#0000072b
(1784046014.496686) can0 0b4#00000000000000bc
(1784046014.496954) can0 025#00000fff828282c1
(1784046014.497491) can0 024#020001f8420280eb
(1784046014.499483) can0 361#80000000
(1784046014.500947) can0 3b1#0000020a00080000
(1784046014.502598) can0 224#0000000000000008
(1784046014.502826) can0 127#00100008000fbe15
(1784046014.506290) can0 44d#5c02001101000000
(1784046014.508393) can0 260#000000000000006a
(1784046014.508540) can0 020#0000072b
(1784046014.508782) can0 230#0000000100003a
(1784046014.509020) can0 025#00000fff787878a3
(1784046014.509486) can0 024#020001f7420280ea
(1784046014.511028) can0 4c1#0100000200000000
(1784046014.514624) can0 320#0000000000080033
(1784046014.515128) can0 1c4#00000000000000cd
(1784046014.516912) can0 245#000000004c
(1784046014.519016) can0 127#00100008000fbe15
(1784046014.519168) can0 247#0600ff0000
(1784046014.520026) can0 3bc#0020000000000000
(1784046014.520546) can0 020#0000072b
(1784046014.520787) can0 0b4#00000000000000bc
(1784046014.521027) can0 025#00000fff787878a3
(1784046014.521479) can0 024#020001f7420280ea
(1784046014.522340) can0 3a0#000000000000004c
(1784046014.526652) can0 224#0000000000000008
(1784046014.528361) can0 260#000000000000006a
(1784046014.532566) can0 020#0000072b
(1784046014.532783) can0 230#0000000100003a
(1784046014.533023) can0 025#00000fff787878a3
(1784046014.533479) can0 024#020001f7420280ea
(1784046014.535373) can0 127#00100008000fbe15
(1784046014.538611) can0 2a4#00000000ab
(1784046014.538845) can0 1c4#00000000000000cd
(1784046014.540444) can0 245#000000004c
(1784046014.542484) can0 247#0600ff0000
(1784046014.544727) can0 020#0000072b
(1784046014.544944) can0 0b4#00000000000000bc
(1784046014.545185) can0 025#00000fff787878a3
(1784046014.545469) can0 024#01ff01f7420280e8
(1784046014.548350) can0 260#000000000000006a
(1784046014.550693) can0 224#0000000000000008
(1784046014.551745) can0 127#00100008000fbe15
(1784046014.556729) can0 020#0000072b
(1784046014.556959) can0 230#0000000100003a
(1784046014.557193) can0 025#00000fff787878a3
(1784046014.557467) can0 024#020001f8420280eb
(1784046014.562233) can0 1c4#00000000000000cd
(1784046014.562697) can0 320#0000000000080033
(1784046014.563975) can0 245#000000004c
(1784046014.564133) can0 361#80000000
(1784046014.566048) can0 247#0600ff0000
(1784046014.568128) can0 127#00100008000fbe15
(1784046014.568366) can0 260#000000000000006a
(1784046014.568768) can0 020#0000072b
(1784046014.569013) can0 0b4#00000000000000bc
(1784046014.569261) can0 025#00000fff787878a3
(1784046014.569496) can0 024#020001f7420280ea
(1784046014.574754) can0 224#0000000000000008
(1784046014.580783) can0 020#0000072b
(1784046014.581004) can0 230#0000000100003a
(1784046014.581244) can0 025#00000fff787878a3
(1784046014.581480) can0 024#020001f7420280ea
(1784046014.582458) can0 4ac#18004000ce00b3a0
(1784046014.584509) can0 127#00100008000fbe15
(1784046014.585787) can0 1c4#00000000000000cd
(1784046014.586805) can0 2a4#00000000ab
(1784046014.587513) can0 245#000000004c
(1784046014.588342) can0 260#000000000000006a
(1784046014.589582) can0 247#0600ff0000
(1784046014.592784) can0 020#0000072b
(1784046014.593018) can0 0b4#00000000000000bc
(1784046014.593266) can0 025#00000fff787878a3
(1784046014.593517) can0 024#020001f8420280eb
(1784046014.598906) can0 224#0000000000000008
(1784046014.600889) can0 127#00100008000fbe15
(1784046014.601495) can0 389#0020000000000000
(1784046014.604498) can0 458#5804001200000000
(1784046014.604806) can0 020#0000072b
(1784046014.605032) can0 230#0000000100003a
(1784046014.605276) can0 025#00000fff787878a3
(1784046014.605510) can0 024#020001f8420280eb
(1784046014.608309) can0 260#000000000000006a
(1784046014.609343) can0 1c4#00000000000000cd
(1784046014.610229) can0 45c#4002002101000000
(1784046014.610908) can0 320#0000000000080033
(1784046014.611074) can0 245#000000004c
(1784046014.613114) can0 247#0600ff0000
(1784046014.616832) can0 020#0000072b
(1784046014.617075) can0 0b4#00000000000000bc
(1784046014.617316) can0 025#00000fff787878a3
(1784046014.617548) can0 024#020001f7420280ea
(1784046014.617798) can0 127#00100008000fbe15
(1784046014.622975) can0 224#0000000000000008
(1784046014.624352) can0 3a0#000000000000004c
(1784046014.628377) can0 260#000000000000006a
(1784046014.628532) can0 361#80000000
(1784046014.628851) can0 020#0000072b
(1784046014.629074) can0 230#0000000100003a
(1784046014.629317) can0 025#00000fff787878a3
(1784046014.629554) can0 024#020001f7420280ea
(1784046014.632904) can0 1c4#00000000000000cd
(1784046014.633644) can0 127#00100008000fbe15
(1784046014.634610) can0 245#000000004c
(1784046014.634916) can0 2a4#00000000ab
(1784046014.635170) can0 420#00000000fdfe80a7
(1784046014.636657) can0 247#0600ff0000
(1784046014.638530) can0 620#1000ffffb0100050
(1784046014.640857) can0 020#0000072b
(1784046014.641093) can0 0b4#00000000000000bc
(1784046014.641333) can0 025#00000fff787878a3
(1784046014.641580) can0 024#020001f8420280eb
(1784046014.644902) can0 3f9#702c5602000000f8
(1784046014.646867) can0 353#0000
(1784046014.647089) can0 224#0000000000000008
(1784046014.648344) can0 260#000000000000006a
(1784046014.650019) can0 127#00100008000fbe15
(1784046014.652882) can0 020#0000072b
(1784046014.653112) can0 230#0000000100003a
(1784046014.653341) can0 025#00000fff787878a3
(1784046014.653583) can0 024#020001f7420280ea
(1784046014.656444) can0 1c4#00000000000000cd
(1784046014.658154) can0 245#000000004c
(1784046014.659018) can0 320#0000000000080033
(1784046014.660226) can0 247#0600ff0000
(1784046014.664972) can0 020#0000072b
(1784046014.665178) can0 0b4#00000000000000bc
(1784046014.665424) can0 025#00000fff787878a3
(1784046014.665672) can0 024#020001f7420280ea
(1784046014.666387) can0 127#00100008000fbe15
(1784046014.668346) can0 260#000000000000006a
(1784046014.671140) can0 224#0000000000000008
(1784046014.677104) can0 020#0000072b
(1784046014.677319) can0 230#0000000100003a
(1784046014.677558) can0 024#020001f7420380eb
(1784046014.677794) can0 025#00000fff787878a3
(1784046014.680026) can0 1c4#00000000000000cd
(1784046014.681700) can0 245#000000004c
(1784046014.682780) can0 127#00100008000fbe15
(1784046014.683156) can0 2a4#00000000ab
(1784046014.683759) can0 247#0600ff0000
(1784046014.683981) can0 6c0#e40080a000000000
(1784046014.688363) can0 260#000000000000006a
(1784046014.689248) can0 020#0000072b
(1784046014.689492) can0 0b4#00000000000000bc
(1784046014.689728) can0 025#00000fff787878a3
(1784046014.690442) can0 024#020001f7420380eb
(1784046014.692964) can0 361#80000000
(1784046014.695275) can0 224#0000000000000008
(1784046014.699159) can0 127#00100008000fbe15
(1784046014.701172) can0 39b#0004001000
(1784046014.701323) can0 020#0000072b
(1784046014.701557) can0 230#0000000100003a
(1784046014.701801) can0 025#00000fff787878a3
(1784046014.702437) can0 024#020001f7420380eb
(1784046014.703546) can0 1c4#00000000000000cd
(1784046014.705283) can0 245#000000004c
(1784046014.707289) can0 247#0600ff0000
(1784046014.707535) can0 320#0000000000080033
(1784046014.708269) can0 260#000000000000006a
(1784046014.708520) can0 440#4202001000000000
(1784046014.713306) can0 020#0000072b
(1784046014.713552) can0 0b4#00000000000000bc
(1784046014.713783) can0 025#00000fff787878a3
(1784046014.714433) can0 024#020001f7420280ea
(1784046014.715541) can0 127#00100008000fbe15
(1784046014.719440) can0 224#0000000000000008
(1784046014.721509) can0 6f9#0000000000000000
(1784046014.723035) can0 394#0000
(1784046014.723342) can0 3a0#000000000000004c
(1784046014.724501) can0 38e#2040000000000000
(1784046014.725370) can0 020#0000072b
(1784046014.725550) can0 230#0000000100003a
(1784046014.725802) can0 025#00000fff787878a3
(1784046014.726419) can0 024#020001f7420280ea
(1784046014.727111) can0 1c4#00000000000000cd
(1784046014.727490) can0 387#000000003f3f3f3f
(1784046014.728272) can0 260#000000000000006a
(1784046014.728789) can0 245#000000004c
(1784046014.730840) can0 247#0600ff0000
(1784046014.731420) can0 2a4#00000000ab
(1784046014.731908) can0 127#00100008000fbe15
(1784046014.737351) can0 020#0000072b
(1784046014.737591) can0 0b4#00000000000000bc
(1784046014.737829) can0 025#00000fff787878a3
(1784046014.738082) can0 3b7#0000000000000008
(1784046014.738413) can0 024#020001f7420280ea
(1784046014.741480) can0 633#8100000000000000
(1784046014.741709) can0 38f#0100000000000000
(1784046014.743510) can0 224#0000000000000008
(1784046014.748300) can0 127#00100008000fbe15
(1784046014.748533) can0 260#000000000000006a
(1784046014.749380) can0 020#0000072b
(1784046014.749595) can0 230#0000000100003a
(1784046014.749841) can0 025#00000fff828282c1
(1784046014.750425) can0 024#020001f7420280ea
(1784046014.750662) can0 1c4#00000000000000cd
(1784046014.752336) can0 245#000000004c
(1784046014.754404) can0 247#0600ff0000
(1784046014.755521) can0 320#0000000000080033
(1784046014.757450) can0 3bb#00000000
(1784046014.757605) can0 361#80000000
(1784046014.761448) can0 020#0000072b
(1784046014.761674) can0 0b4#00000000000000bc
(1784046014.761924) can0 025#00000fff787878a3
(1784046014.762407) can0 024#020001f7420280ea
(1784046014.764674) can0 127#00100008000fbe15
(1784046014.765870) can0 4a6#000000001a1a1a00
(1784046014.767560) can0 224#0000000000000008
(1784046014.768297) can0 260#000000000000006a
(1784046014.773497) can0 020#0000072b
(1784046014.773677) can0 230#0000000100003a
(1784046014.773921) can0 025#00000fff787878a3
(1784046014.774214) can0 1c4#00000000000000cd
(1784046014.774455) can0 024#020001f7420280ea
(1784046014.775875) can0 245#000000004c
(1784046014.777936) can0 247#0600ff0000
(1784046014.779512) can0 2a4#00000000ab
(1784046014.781055) can0 127#00100008000fbe15
(1784046014.785521) can0 020#0000072b
(1784046014.785758) can0 0b4#00000000000000bc
(1784046014.785991) can0 025#00000fff787878a3
(1784046014.786398) can0 024#020001f7420280ea
(1784046014.788278) can0 260#000000000000006a
(1784046014.791600) can0 224#0000000000000008
(1784046014.797451) can0 127#00100008000fbe15
(1784046014.797578) can0 020#0000072b
(1784046014.797834) can0 1c4#00000000000000cd
(1784046014.798078) can0 025#00000fff787878a3
(1784046014.798310) can0 230#0000000100003a
(1784046014.798551) can0 024#020001f7420280ea
(1784046014.799434) can0 245#000000004c
(1784046014.801470) can0 247#0600ff0000
(1784046014.803443) can0 442#4302000002000000
(1784046014.803647) can0 320#0000000000080033
(1784046014.808297) can0 260#000000000000006a
(1784046014.809649) can0 020#0000072b
(1784046014.809877) can0 0b4#00000000000000bc
(1784046014.810120) can0 025#00000fff787878a3
(1784046014.810389) can0 024#020001f7420280ea
(1784046014.813810) can0 127#00100008000fbe15
(1784046014.815716) can0 224#0000000000000008
(1784046014.821327) can0 1c4#00000000000000cd
(1784046014.821718) can0 020#0000072b
(1784046014.821945) can0 230#0000000100003a
(1784046014.822184) can0 025#00000fff787878a3
(1784046014.822423) can0 024#020001f7420280ea
(1784046014.822590) can0 361#80000000
(1784046014.822964) can0 245#000000004c
(1784046014.825013) can0 247#0600ff0000
(1784046014.825350) can0 3a0#000000000000004c
(1784046014.827795) can0 2a4#00000000ab
(1784046014.828247) can0 260#000000000000006a
(1784046014.830182) can0 127#00100008000fbe15
(1784046014.833462) can0 621#1100000000000000
(1784046014.833753) can0 020#0000072b
(1784046014.834000) can0 0b4#00000000000000bc
(1784046014.834257) can0 025#00000fff787878a3
(1784046014.834484) can0 024#020001f7420280ea
(1784046014.839902) can0 224#0000000000000008
(1784046014.841505) can0 389#0020000000000000
(1784046014.844502) can0 458#5804001200000000
(1784046014.844864) can0 1c4#00000000000000cd
(1784046014.845808) can0 020#0000072b
(1784046014.846028) can0 230#0000000100003a
(1784046014.846268) can0 025#00000fff787878a3
(1784046014.846508) can0 024#020001f7420280ea
(1784046014.846743) can0 127#00100008000fbe15
(1784046014.846936) can0 245#000000004c
(1784046014.848266) can0 260#000000000000006a
(1784046014.848507) can0 626#1c00300000000000
(1784046014.848686) can0 247#0600ff0000
(1784046014.852003) can0 320#0000000000080033
(1784046014.857900) can0 020#0000072b
(1784046014.858106) can0 0b4#00000000000000bc
(1784046014.858350) can0 025#00000fff787878a3
(1784046014.858600) can0 024#020001f7420280ea
(1784046014.858843) can0 622#1200000000000000
(1784046014.859861) can0 38b#00000000311d00
(1784046014.861931) can0 421#0000000000000000
(1784046014.862932) can0 127#00100008000fbe15
(1784046014.864019) can0 224#0000000000000008
(1784046014.868437) can0 1c4#00000000000000cd
(1784046014.868668) can0 260#000000000000006a
(1784046014.868916) can0 623#1900000000000000
(1784046014.869964) can0 020#0000072b
(1784046014.870171) can0 230#0000000100003a
(1784046014.870422) can0 024#020001f7420280ea
(1784046014.870661) can0 025#00000fff787878a3
(1784046014.870844) can0 245#000000004c
(1784046014.872114) can0 247#0600ff0000
(1784046014.876000) can0 2a4#00000000ab
(1784046014.878458) can0 624#1a00574949400000
(1784046014.879318) can0 127#00100008000fbe15
(1784046014.882057) can0 020#0000072b
(1784046014.882287) can0 0b4#00000000000000bc
(1784046014.882537) can0 024#020001f7420280ea
(1784046014.882778) can0 025#00000fff787878a3
(1784046014.886427) can0 361#80000000
(1784046014.888108) can0 224#0000000000000008
(1784046014.888340) can0 260#000000000000006a
(1784046014.888596) can0 638#13001f0000000000
(1784046014.889583) can0 499#d300268000000000
(1784046014.890573) can0 49a#00162b0061a01a70
(1784046014.891969) can0 1c4#00000000000000cd
(1784046014.893406) can0 611#2100001200018542
(1784046014.893626) can0 245#000000004c
(1784046014.893876) can0 49b#00a0252000004000
(1784046014.894078) can0 020#0000072b
(1784046014.894316) can0 230#0000000100003a
(1784046014.894555) can0 024#020001f8420280eb
(1784046014.894793) can0 025#00000fff787878a3
(1784046014.895036) can0 3f9#702c5602000000f8
(1784046014.895703) can0 127#00100008000fbe15
(1784046014.895880) can0 247#0600ff0000
(1784046014.896129) can0 49d#646300d2a332281b
(1784046014.896619) can0 353#0000
(1784046014.897775) can0 4a8#0008000000000004
(1784046014.898429) can0 63b#16003a8a000011f2
(1784046014.898765) can0 4ae#008000c00130024b
(1784046014.900156) can0 320#0000000000080033
(1784046014.900829) can0 4af#0044d00000000000
(1784046014.901505) can0 443#4d02002005000000
(1784046014.906204) can0 020#0000072b
(1784046014.906414) can0 0b4#00000000000000bc
(1784046014.906666) can0 025#00000fff787878a3
(1784046014.906911) can0 4a0#06b8000000000000
(1784046014.907164) can0 4a1#00fe80808020c102
(1784046014.907398) can0 024#020001f8420280eb
(1784046014.907631) can0 4a2#190000c90035a901
(1784046014.908230) can0 260#000000000000006a
(1784046014.908460) can0 63c#98004e4850130060
(1784046014.912083) can0 127#00100008000fbe15
(1784046014.912324) can0 224#0000000000000008
(1784046014.915540) can0 1c4#00000000000000cd
(1784046014.917150) can0 245#000000004c
(1784046014.918226) can0 020#0000072b
(1784046014.918430) can0 230#0000000100003a
(1784046014.918675) can0 025#00000fff787878a3
(1784046014.918906) can0 63d#99004348584e4200
(1784046014.919185) can0 247#0600ff0000
(1784046014.919420) can0 024#020001f7420280ea
(1784046014.923575) can0 610#20000064c0fffd40
(1784046014.924277) can0 2a4#00000000ab
(1784046014.924533) can0 3a0#000000000000004c
(1784046014.928257) can0 260#000000000000006a
(1784046014.928495) can0 127#00100008000fbe15
(1784046014.928746) can0 680#d800010000000000
(1784046014.930251) can0 020#0000072b
(1784046014.930472) can0 0b4#00000000000000bc
(1784046014.930739) can0 025#00000fff828282c1
(1784046014.931346) can0 024#020001f7420280ea
(1784046014.936034) can0 498#c1000000614f0000
(1784046014.936398) can0 224#0000000000000008
(1784046014.938056) can0 49c#400d09a800502c00
(1784046014.938414) can0 620#1000ffffb0100050
(1784046014.939074) can0 1c4#00000000000000cd
(1784046014.940104) can0 4a7#00016c25000400c8
(1784046014.940675) can0 245#000000004c
(1784046014.942155) can0 4ad#0000005d9d0001a0
(1784046014.942303) can0 020#0000072b
(1784046014.942538) can0 230#0000000100003a
(1784046014.942783) can0 025#00000fff787878a3
(1784046014.942967) can0 247#0600ff0000
(1784046014.943340) can0 024#020001f7420280ea
(1784046014.944082) can0 3d3#0000
(1784046014.944831) can0 127#00100008000fbe15
(1784046014.948226) can0 260#000000000000006a
(1784046014.948456) can0 320#0000000000080033
(1784046014.950932) can0 361#80000000
(1784046014.951357) can0 4dc#1d00001000000000
(1784046014.954317) can0 020#0000072b
(1784046014.954542) can0 0b4#00000000000000bc
(1784046014.954802) can0 025#00000fff787878a3
(1784046014.955337) can0 024#020001f7420280ea
(1784046014.960489) can0 224#0000000000000008
(1784046014.961211) can0 127#00100008000fbe15
(1784046014.962637) can0 1c4#00000000000000cd
(1784046014.964239) can0 245#000000004c
(1784046014.966291) can0 247#0600ff0000
(1784046014.966438) can0 020#0000072b
(1784046014.966675) can0 230#0000000100003a
(1784046014.966930) can0 025#00000fff787878a3
(1784046014.967336) can0 024#020001f8420280eb
(1784046014.968176) can0 260#000000000000006a
(1784046014.972437) can0 2a4#00000000ab
(1784046014.977596) can0 127#00100008000fbe15
(1784046014.978494) can0 020#0000072b
(1784046014.978738) can0 0b4#00000000000000bc
(1784046014.979002) can0 025#00000fff787878a3
(1784046014.979337) can0 024#020001f7420280ea
(1784046014.983599) can0 6c0#e40080a000000000
(1784046014.984568) can0 224#0000000000000008
(1784046014.986185) can0 1c4#00000000000000cd
(1784046014.987796) can0 245#000000004c
(1784046014.988253) can0 260#000000000000006a
(1784046014.989823) can0 247#0600ff0000
(1784046014.990548) can0 020#0000072b
(1784046014.990755) can0 230#0000000100003a
(1784046014.991005) can0 025#00000fff787878a3
(1784046014.991323) can0 024#020001f7420280ea
(1784046014.993976) can0 127#00100008000fbe15
(1784046014.996597) can0 320#0000000000080033
(1784046015.001477) can0 44d#5c02001101000000
(1784046015.002559) can0 020#0000072b
(1784046015.002799) can0 0b4#00000000000000bc
(1784046015.003033) can0 025#00000fff787878a3
(1784046015.003318) can0 024#020001f7420280ea
(1784046015.008216) can0 260#000000000000006a
(1784046015.008636) can0 224#0000000000000008
(1784046015.009752) can0 1c4#00000000000000cd
(1784046015.010344) can0 127#00100008000fbe15
(1784046015.011329) can0 245#000000004c
(1784046015.013369) can0 247#0600ff0000
(1784046015.014585) can0 020#0000072b
(1784046015.014797) can0 230#0000000100003a
(1784046015.015042) can0 025#00000fff787878a3
(1784046015.015318) can0 024#020001f7420280ea
(1784046015.015475) can0 361#80000000
(1784046015.020581) can0 2a4#00000000ab
(1784046015.022929) can0 394#0000
(1784046015.023355) can0 3a0#000000000000004c
(1784046015.026605) can0 020#0000072b
(1784046015.026829) can0 0b4#00000000000000bc
(1784046015.027083) can0 025#00000fff787878a3
(1784046015.027323) can0 127#00100008000fbe15
(1784046015.027569) can0 024#020001f7420280ea
(1784046015.028235) can0 260#000000000000006a
(1784046015.032711) can0 224#0000000000000008
(1784046015.033280) can0 1c4#00000000000000cd
(1784046015.034863) can0 245#000000004c
(1784046015.036932) can0 247#0600ff0000
(1784046015.038639) can0 020#0000072b
(1784046015.038860) can0 230#0000000100003a
(1784046015.039087) can0 025#00000fff787878a3
(1784046015.039330) can0 024#020001f7420280ea
(1784046015.039579) can0 3b7#0000000000000008
(1784046015.043111) can0 127#00100008000fbe15
(1784046015.044740) can0 320#0000000000080033
(1784046015.048247) can0 260#000000000000006a
(1784046015.048332) can0 423#00
(1784046015.050742) can0 020#0000072b
(1784046015.050979) can0 0b4#00000000000000bc
(1784046015.051240) can0 025#00000fff787878a3
(1784046015.051447) can0 024#020001f7420280ea
(1784046015.056869) can0 1c4#00000000000000cd
(1784046015.057087) can0 224#0000000000000008
(1784046015.058409) can0 245#000000004c
(1784046015.059484) can0 127#00100008000fbe15
(1784046015.060469) can0 247#0600ff0000
(1784046015.062888) can0 020#0000072b
(1784046015.063116) can0 230#0000000100003a
(1784046015.063349) can0 024#020001f7420280ea
(1784046015.063593) can0 025#00000fff787878a3
(1784046015.068156) can0 260#000000000000006a
(1784046015.068979) can0 2a4#00000000ab
(1784046015.074987) can0 020#0000072b
(1784046015.075238) can0 0b4#00000000000000bc
(1784046015.075472) can0 024#020001f7420280ea
(1784046015.075711) can0 025#00000fff787878a3
(1784046015.075950) can0 127#00100008000fbe15
(1784046015.079901) can0 361#80000000
(1784046015.080385) can0 1c4#00000000000000cd
(1784046015.081010) can0 224#0000000000000008
(1784046015.081293) can0 4ac#28006000d900b3a0
(1784046015.081538) can0 389#0020000000000000
(1784046015.081964) can0 245#000000004c
(1784046015.084004) can0 247#0600ff0000
(1784046015.084505) can0 458#5804001200000000
(1784046015.087022) can0 020#0000072b
(1784046015.087251) can0 230#0000000100003a
(1784046015.087489) can0 024#020001f8420280eb
(1784046015.087722) can0 025#00000fff828282c1
(1784046015.088143) can0 260#000000000000006a
(1784046015.092250) can0 127#00100008000fbe15
(1784046015.093074) can0 320#0000000000080033
(1784046015.099097) can0 020#0000072b
(1784046015.099337) can0 0b4#00000000000000bc
(1784046015.099575) can0 025#00000fff787878a3
(1784046015.100294) can0 024#020001f8420280eb
(1784046015.103965) can0 1c4#00000000000000cd
(1784046015.105197) can0 224#0000000000000008
(1784046015.105498) can0 245#000000004c
(1784046015.105746) can0 45c#4002002101000000
(1784046015.107543) can0 247#0600ff0000
(1784046015.108208) can0 260#000000000000006a
(1784046015.108617) can0 127#00100008000fbe15
(1784046015.111149) can0 020#0000072b
(1784046015.111380) can0 230#0000000100003a
(1784046015.111603) can0 025#00000fff787878a3
(1784046015.112287) can0 024#020001f8420280eb
(1784046015.117210) can0 2a4#00000000ab
(1784046015.122385) can0 3a0#000000000000004c
(1784046015.123170) can0 020#0000072b
(1784046015.123405) can0 0b4#00000000000000bc
(1784046015.123642) can0 025#00000fff787878a3
(1784046015.124284) can0 024#020001f8420280eb
(1784046015.125000) can0 127#00100008000fbe15
(1784046015.127500) can0 1c4#00000000000000cd
(1784046015.128185) can0 260#000000000000006a
(1784046015.129039) can0 245#000000004c
(1784046015.129307) can0 224#0000000000000008
(1784046015.131133) can0 247#0600ff0000
(1784046015.135193) can0 020#0000072b
(1784046015.135398) can0 230#0000000100003a
(1784046015.135635) can0 025#00000fff787878a3
(1784046015.136265) can0 024#020001f8420280eb
(1784046015.141340) can0 320#0000000000080033
(1784046015.141584) can0 127#00100008000fbe15
(1784046015.144429) can0 3f9#702c5602000000f8
(1784046015.144607) can0 361#80000000
(1784046015.144852) can0 4dd#1e00110200000000
(1784046015.146377) can0 353#0000
(1784046015.147205) can0 020#0000072b
(1784046015.147454) can0 0b4#00000000000000bc
(1784046015.147692) can0 025#00000fff787878a3
(1784046015.148160) can0 260#000000000000006a
(1784046015.148402) can0 024#020001f8420280eb
(1784046015.151040) can0 1c4#00000000000000cd
(1784046015.152564) can0 245#000000004c
(1784046015.153356) can0 224#0000000000000008
(1784046015.154621) can0 247#0600ff0000
(1784046015.157740) can0 127#00100008000fbe15
(1784046015.159277) can0 020#0000072b
(1784046015.159503) can0 230#0000000100003a
(1784046015.159742) can0 025#00000fff787878a3
(1784046015.160260) can0 024#020001f8420280eb
(1784046015.165308) can0 2a4#00000000ab
(1784046015.168147) can0 260#000000000000006a
(1784046015.171287) can0 020#0000072b
(1784046015.171536) can0 0b4#00000000000000bc
(1784046015.171774) can0 025#00000fff787878a3
(1784046015.172254) can0 024#020001f8420280eb
(1784046015.173376) can0 613#2800000000000000
(1784046015.174116) can0 127#00100008000fbe15
(1784046015.174578) can0 1c4#00000000000000cd
(1784046015.176127) can0 245#000000004c
(1784046015.177400) can0 224#0000000000000008
(1784046015.178154) can0 247#0600ff0000
(1784046015.183318) can0 020#0000072b
(1784046015.183545) can0 230#0000000100003a
(1784046015.183783) can0 025#00000fff787878a3
(1784046015.184247) can0 024#020001f7420280ea
(1784046015.188090) can0 260#000000000000006a
(1784046015.189414) can0 320#0000000000080033
(1784046015.190494) can0 127#00100008000fbe15
(1784046015.195380) can0 020#0000072b
(1784046015.195629) can0 0b4#00000000000000bc
(1784046015.195866) can0 025#00000fff787878a3
(1784046015.196246) can0 024#020001f7420280ea
(1784046015.198147) can0 1c4#00000000000000cd
(1784046015.199660) can0 245#000000004c
(1784046015.201453) can0 224#0000000000000008
(1784046015.201703) can0 2fc#8000000000000000
(1784046015.201891) can0 247#0600ff0000
(1784046015.206872) can0 127#00100008000fbe15
(1784046015.207448) can0 020#0000072b
(1784046015.207674) can0 230#0000000100003a
(1784046015.207913) can0 025#00000fff787878a3
(1784046015.208160) can0 260#000000000000006a
(1784046015.208400) can0 024#020001f7420280ea
(1784046015.208645) can0 440#4202001000000000
(1784046015.208867) can0 361#80000000
(1784046015.213423) can0 2a4#00000000ab
(1784046015.219475) can0 020#0000072b
(1784046015.219724) can0 0b4#00000000000000bc
(1784046015.219962) can0 025#00000fff787878a3
(1784046015.220235) can0 024#020001f7420280ea
(1784046015.221496) can0 434#414000c000000000
(1784046015.221745) can0 1c4#00000000000000cd
(1784046015.223252) can0 127#00100008000fbe15
(1784046015.223446) can0 245#000000004c
(1784046015.224354) can0 3a0#000000000000004c
(1784046015.225264) can0 247#0600ff0000
(1784046015.225529) can0 224#0000000000000008
(1784046015.228320) can0 260#000000000000006a
(1784046015.231496) can0 020#0000072b
(1784046015.231722) can0 230#0000000100003a
(1784046015.231961) can0 025#00000fff787878a3
(1784046015.232229) can0 024#020001f7420280ea
(1784046015.237577) can0 320#0000000000080033
(1784046015.238285) can0 620#1000ffffb0100050
(1784046015.239629) can0 127#00100008000fbe15
(1784046015.241488) can0 435#800505ffe02f4003
(1784046015.243525) can0 020#0000072b
(1784046015.243774) can0 0b4#00000000000000bc
(1784046015.244012) can0 025#00000fff787878a3
(1784046015.244252) can0 024#020001f7420280ea
(1784046015.245252) can0 1c4#00000000000000cd
(1784046015.246272) can0 4c6#0700020000000000
(1784046015.246742) can0 245#000000004c
(1784046015.248096) can0 260#000000000000006a
(1784046015.248799) can0 247#0600ff0000
(1784046015.249724) can0 224#0000000000000008
(1784046015.255580) can0 020#0000072b
(1784046015.255805) can0 230#0000000100003a
(1784046015.256043) can0 025#00000fff787878a3
(1784046015.256283) can0 024#020001f7420280ea
(1784046015.256527) can0 127#00100008000fbe15
(1784046015.261763) can0 2a4#00000000ab
(1784046015.267661) can0 020#0000072b
(1784046015.267910) can0 0b4#00000000000000bc
(1784046015.268148) can0 025#00000fff787878a3
(1784046015.268388) can0 024#020001f7420280ea
(1784046015.268636) can0 260#000000000000006a
(1784046015.268884) can0 1c4#00000000000000cd
(1784046015.270304) can0 245#000000004c
(1784046015.272388) can0 127#00100008000fbe15
(1784046015.272584) can0 247#0600ff0000
(1784046015.273348) can0 361#80000000
(1784046015.273890) can0 224#0000000000000008
(1784046015.279789) can0 020#0000072b
(1784046015.280015) can0 230#0000000100003a
(1784046015.280258) can0 024#020001f7420280ea
(1784046015.280493) can0 025#00000fff787878a3
(1784046015.280740) can0 4c3#0300000100000000
(1784046015.283185) can0 6c0#e40080a000000000
(1784046015.286009) can0 320#0000000000080033
(1784046015.288147) can0 260#000000000000006a
(1784046015.288788) can0 127#00100008000fbe15
(1784046015.291979) can0 020#0000072b
(1784046015.292215) can0 0b4#00000000000000bc
(1784046015.292471) can0 025#00000fff828282c1
(1784046015.292714) can0 1c4#00000000000000cd
(1784046015.293232) can0 024#020001f7420280ea
(1784046015.293854) can0 245#000000004c
(1784046015.295897) can0 247#0600ff0000
(1784046015.298023) can0 224#0000000000000008
(1784046015.303372) can0 442#4302000002000000
(1784046015.304009) can0 020#0000072b
(1784046015.304229) can0 230#0000000100003a
(1784046015.304469) can0 025#00000fff787878a3
(1784046015.305161) can0 127#00100008000fbe15
(1784046015.305401) can0 024#020001f7420280ea
(1784046015.308098) can0 260#000000000000006a
(1784046015.310038) can0 2a4#00000000ab
(1784046015.315924) can0 1c4#00000000000000cd
(1784046015.316073) can0 020#0000072b
(1784046015.316324) can0 0b4#00000000000000bc
(1784046015.316569) can0 025#00000fff787878a3
(1784046015.317219) can0 024#020001f7420280ea
(1784046015.317396) can0 245#000000004c
(1784046015.319465) can0 247#0600ff0000
(1784046015.321522) can0 389#0020000000000000
(1784046015.321753) can0 127#00100008000fbe15
(1784046015.322010) can0 630#1700000000000000
(1784046015.322260) can0 224#0000000000000008
(1784046015.323021) can0 394#0000
(1784046015.323272) can0 4c8#0900000000000000
(1784046015.323519) can0 3a0#000000000000004c
(1784046015.324514) can0 458#5804001200000000
(1784046015.328070) can0 260#000000000000006a
(1784046015.328218) can0 020#0000072b
(1784046015.328450) can0 230#0000000100003a
(1784046015.328685) can0 025#00000fff787878a3
(1784046015.329210) can0 024#020001f7420280ea
(1784046015.331389) can0 632#8000000000000000
(1784046015.334105) can0 320#0000000000080033
(1784046015.337914) can0 127#00100008000fbe15
(1784046015.338092) can0 361#80000000
(1784046015.339473) can0 1c4#00000000000000cd
(1784046015.340054) can0 020#0000072b
(1784046015.340301) can0 0b4#00000000000000bc
(1784046015.340542) can0 025#00000fff787878a3
(1784046015.340790) can0 3b7#0000000000000008
(1784046015.340980) can0 245#000000004c
(1784046015.341233) can0 635#8300000000000000
(1784046015.341464) can0 024#020001f7420280ea
(1784046015.342986) can0 247#0600ff0000
(1784046015.346217) can0 224#0000000000000008
(1784046015.348136) can0 260#000000000000006a
(1784046015.352111) can0 020#0000072b
(1784046015.352332) can0 230#0000000100003a
(1784046015.352565) can0 025#00000fff787878a3
(1784046015.353216) can0 024#020001f7420280ea
(1784046015.353757) can0 38a#0000000000
(1784046015.354304) can0 127#00100008000fbe15
(1784046015.358189) can0 2a4#00000000ab
(1784046015.363038) can0 1c4#00000000000000cd
(1784046015.364155) can0 020#0000072b
(1784046015.364398) can0 0b4#00000000000000bc
(1784046015.364641) can0 025#00000fff787878a3
(1784046015.364822) can0 245#000000004c
(1784046015.365203) can0 024#020001f7420280ea
(1784046015.366534) can0 247#0600ff0000
(1784046015.368082) can0 260#000000000000006a
(1784046015.370309) can0 224#0000000000000008
(1784046015.370675) can0 127#00100008000fbe15
(1784046015.376265) can0 020#0000072b
(1784046015.376450) can0 230#0000000100003a
(1784046015.376702) can0 025#00000fff787878a3
(1784046015.377202) can0 024#020001f7420280ea
(1784046015.382324) can0 320#0000000000080033
(1784046015.386593) can0 1c4#00000000000000cd
(1784046015.387056) can0 127#00100008000fbe15
(1784046015.388074) can0 260#000000000000006a
(1784046015.388221) can0 020#0000072b
(1784046015.388485) can0 0b4#00000000000000bc
(1784046015.388721) can0 025#00000fff787878a3
(1784046015.388906) can0 245#000000004c
(1784046015.389157) can0 499#d300268000000000
(1784046015.389400) can0 024#020001f7420280ea
(1784046015.390077) can0 247#0600ff0000
(1784046015.390308) can0 49a#00162b0061a01a70
(1784046015.392384) can0 380#0000000000003900
(1784046015.392658) can0 3a1#0000002040000000
(1784046015.392960) can0 3b0#00c3005200000000
(1784046015.393244) can0 49b#00a0252000004000
(1784046015.394235) can0 3f9#702c5602000000f8
(1784046015.394456) can0 224#0000000000000008
(1784046015.395229) can0 49d#646300d2a332281c
(1784046015.396173) can0 353#0000
(1784046015.397324) can0 4a8#0008000000000004
(1784046015.398248) can0 63b#16003a8a000011f7
(1784046015.398470) can0 4ae#008000c00138024b
(1784046015.400383) can0 4af#0044d00000000000
(1784046015.400533) can0 020#0000072b
(1784046015.400774) can0 230#0000000100003a
(1784046015.401023) can0 025#00000fff787878a3
(1784046015.401263) can0 024#020001f7420280ea
(1784046015.402366) can0 361#80000000
(1784046015.403435) can0 127#00100008000fbe15
(1784046015.406331) can0 2a4#00000000ab
(1784046015.406566) can0 4a0#06b8000000000000
(1784046015.406822) can0 4a1#00fe80808020c102
(1784046015.407048) can0 4a2#190000c90035a901
(1784046015.408121) can0 260#000000000000006a
(1784046015.410133) can0 1c4#00000000000000cd
(1784046015.411571) can0 245#000000004c
(1784046015.412385) can0 020#0000072b
(1784046015.412619) can0 0b4#00000000000000bc
(1784046015.412866) can0 025#00000fff787878a3
(1784046015.413183) can0 024#020001f8420280eb
(1784046015.413636) can0 247#0600ff0000
(1784046015.418407) can0 224#0000000000000008
(1784046015.419816) can0 127#00100008000fbe15
(1784046015.421408) can0 4c1#0100000200000000
(1784046015.421638) can0 443#4d02002005000000
(1784046015.423436) can0 610#20000064c0fffd40
(1784046015.424420) can0 020#0000072b
(1784046015.424607) can0 230#0000000100003a
(1784046015.424854) can0 025#00000fff787878a3
(1784046015.425176) can0 024#020001f7420280ea
(1784046015.425416) can0 3a0#000000000000004c
(1784046015.428037) can0 260#000000000000006a
(1784046015.430453) can0 320#0000000000080033
(1784046015.433707) can0 1c4#00000000000000cd
(1784046015.435115) can0 245#000000004c
(1784046015.435736) can0 498#c1000000614f0000
(1784046015.436192) can0 127#00100008000fbe15
(1784046015.436421) can0 020#0000072b
(1784046015.436672) can0 0b4#00000000000000bc
(1784046015.436915) can0 025#00000fff787878a3
(1784046015.437174) can0 024#020001f7420280ea
(1784046015.437361) can0 247#0600ff0000
(1784046015.437600) can0 399#00000000000000
(1784046015.437835) can0 49c#400d09a800502c00
(1784046015.439837) can0 4a7#00016c25000400c8
(1784046015.441885) can0 4ad#0000005d9d0001a0
(1784046015.442513) can0 224#0000000000000008
(1784046015.448030) can0 260#000000000000006a
(1784046015.448504) can0 020#0000072b
(1784046015.448728) can0 230#0000000100003a
(1784046015.448969) can0 025#00000fff787878a3
(1784046015.449207) can0 024#020001f7420280ea
(1784046015.452580) can0 127#00100008000fbe15
(1784046015.454630) can0 2a4#00000000ab
(1784046015.457261) can0 1c4#00000000000000cd
(1784046015.458684) can0 245#000000004c
(1784046015.460585) can0 020#0000072b
(1784046015.460814) can0 0b4#00000000000000bc
(1784046015.461062) can0 025#00000fff787878a3
(1784046015.461295) can0 024#01ff01f8420280e9
(1784046015.461513) can0 247#0600ff0000
(1784046015.466768) can0 224#0000000000000008
(1784046015.466912) can0 361#80000000
(1784046015.468097) can0 260#000000000000006a
(1784046015.468386) can0 3d3#0000
(1784046015.468957) can0 127#00100008000fbe15
(1784046015.472806) can0 020#0000072b
(1784046015.473022) can0 230#0000000100003a
(1784046015.473272) can0 024#01ff01f7420280e8
(1784046015.473502) can0 025#00000fff787878a3
(1784046015.478868) can0 320#0000000000080033
(1784046015.479651) can0 3b9#a30000
(1784046015.480803) can0 1c4#00000000000000cd
(1784046015.482240) can0 245#000000004c
(1784046015.484259) can0 247#0600ff0000
(1784046015.484849) can0 020#0000072b
(1784046015.485085) can0 0b4#00000000000000bc
(1784046015.485333) can0 024#01ff01f7420280e8
(1784046015.485575) can0 025#00000fff828282c1
(1784046015.485824) can0 127#00100008000fbe15
(1784046015.486350) can0 3b6#8064031000020100
(1784046015.488069) can0 260#000000000000006a
(1784046015.490942) can0 224#0000000000000008
(1784046015.496940) can0 020#0000072b
(1784046015.497159) can0 230#0000000100003a
(1784046015.497398) can0 025#00000fff787878a3
(1784046015.498178) can0 024#020001f7420280ea
(1784046015.500609) can0 3b1#0000020a00080000
(1784046015.501716) can0 127#00100008000fbe15
(1784046015.503057) can0 2a4#00000000ab
(1784046015.504345) can0 1c4#00000000000000cd
(1784046015.505748) can0 245#000000004c
(1784046015.507839) can0 247#0600ff0000
(1784046015.508056) can0 260#000000000000006a
(1784046015.509020) can0 020#0000072b
(1784046015.509270) can0 0b4#00000000000000bc
(1784046015.509502) can0 025#00000fff787878a3
(1784046015.510166) can0 024#020001f7420280ea
(1784046015.515187) can0 224#0000000000000008
(1784046015.518093) can0 127#00100008000fbe15
(1784046015.521074) can0 020#0000072b
(1784046015.521294) can0 230#0000000100003a
(1784046015.521525) can0 025#00000fff787878a3
(1784046015.521781) can0 3a0#000000000000004c
(1784046015.522019) can0 44d#5c02001101000000
(1784046015.522266) can0 024#020001f7420280ea
(1784046015.527232) can0 320#0000000000080033
(1784046015.527910) can0 1c4#00000000000000cd
(1784046015.528141) can0 260#000000000000006a
(1784046015.529292) can0 245#000000004c
(1784046015.531360) can0 247#0600ff0000
(1784046015.531516) can0 361#80000000
(1784046015.533182) can0 020#0000072b
(1784046015.533389) can0 0b4#00000000000000bc
(1784046015.533641) can0 025#00000fff787878a3
(1784046015.534161) can0 024#020001f7420280ea
(1784046015.534470) can0 127#00100008000fbe15
(1784046015.538207) can0 620#1000ffffb0100050
(1784046015.539288) can0 224#0000000000000008
(1784046015.543707) can0 3bc#0020000000000000
(1784046015.545196) can0 020#0000072b
(1784046015.545414) can0 230#0000000100003a
(1784046015.545649) can0 025#00000fff787878a3
(1784046015.546151) can0 024#01ff01f7420280e8
(1784046015.548009) can0 260#000000000000006a
(1784046015.550848) can0 127#00100008000fbe15
(1784046015.551245) can0 2a4#00000000ab
(1784046015.551485) can0 1c4#00000000000000cd
(1784046015.552857) can0 245#000000004c
(1784046015.554893) can0 247#0600ff0000
(1784046015.557259) can0 020#0000072b
(1784046015.557492) can0 0b4#00000000000000bc
(1784046015.557735) can0 025#00000fff787878a3
(1784046015.558147) can0 024#01ff01f7420280e8
(1784046015.561530) can0 389#0020000000000000
(1784046015.563302) can0 224#0000000000000008
(1784046015.564526) can0 458#5804001200000000
(1784046015.565950) can0 4a6#000000001a1a1a00
(1784046015.567227) can0 127#00100008000fbe15
(1784046015.568041) can0 260#000000000000006a
(1784046015.569289) can0 020#0000072b
(1784046015.569507) can0 230#0000000100003a
(1784046015.569741) can0 025#00000fff787878a3
(1784046015.570148) can0 024#01ff01f7420280e8
(1784046015.575020) can0 1c4#00000000000000cd
(1784046015.575306) can0 320#0000000000080033
(1784046015.576392) can0 245#000000004c
(1784046015.578432) can0 247#0600ff0000
(1784046015.581124) can0 4ac#98000000da00b3a0
(1784046015.581299) can0 020#0000072b
(1784046015.581559) can0 0b4#00000000000000bc
(1784046015.581797) can0 025#00000fff787878a3
(1784046015.582130) can0 024#01ff01f7420280e8
(1784046015.582822) can0 6c0#e40080a000000000
(1784046015.583605) can0 127#00100008000fbe15
(1784046015.587367) can0 224#0000000000000008
(1784046015.588221) can0 260#000000000000006a
(1784046015.593369) can0 020#0000072b
(1784046015.593558) can0 230#0000000100003a
(1784046015.593802) can0 025#00000fff787878a3
(1784046015.594130) can0 024#01ff01f7420280e8
(1784046015.595815) can0 361#80000000
(1784046015.598556) can0 1c4#00000000000000cd
(1784046015.599300) can0 2a4#00000000ab
(1784046015.599985) can0 127#00100008000fbe15
(1784046015.600159) can0 245#000000004c
(1784046015.602004) can0 247#0600ff0000
(1784046015.605381) can0 020#0000072b
(1784046015.605594) can0 0b4#00000000000000bc
(1784046015.605847) can0 025#00000fff787878a3
(1784046015.606124) can0 024#01ff01f7420280e8
(1784046015.607997) can0 260#000000000000006a
(1784046015.611456) can0 224#0000000000000008
(1784046015.616365) can0 127#00100008000fbe15
(1784046015.617386) can0 020#0000072b
(1784046015.617589) can0 230#0000000100003a
(1784046015.617840) can0 025#00000fff787878a3
(1784046015.618120) can0 024#01ff01f7420280e8
(1784046015.622123) can0 1c4#00000000000000cd
(1784046015.622718) can0 394#0000
(1784046015.623375) can0 3a0#000000000000004c
(1784046015.623562) can0 245#000000004c
(1784046015.623808) can0 320#0000000000080033
(1784046015.624899) can0 45c#4002002101000000
(1784046015.625529) can0 247#0600ff0000
(1784046015.627965) can0 260#000000000000006a
(1784046015.629424) can0 020#0000072b
(1784046015.629632) can0 0b4#00000000000000bc
(1784046015.629880) can0 025#00000fff787878a3
(1784046015.630141) can0 024#01ff01f7420280e8
(1784046015.632739) can0 127#00100008000fbe15
(1784046015.635554) can0 224#0000000000000008
(1784046015.641456) can0 020#0000072b
(1784046015.641678) can0 230#0000000100003a
(1784046015.641910) can0 025#00000fff787878a3
(1784046015.642161) can0 024#01ff01f7420280e8
(1784046015.642405) can0 3b7#0000000000000008
(1784046015.642659) can0 420#00000000fdfe80a7
(1784046015.644005) can0 3f9#702c5602000000f8
(1784046015.645657) can0 1c4#00000000000000cd
(1784046015.645941) can0 353#0000
(1784046015.647040) can0 245#000000004c
(1784046015.647559) can0 2a4#00000000ab
(1784046015.648062) can0 260#000000000000006a
(1784046015.649123) can0 127#00100008000fbe15
(1784046015.649299) can0 247#0600ff0000
(1784046015.653517) can0 020#0000072b
(1784046015.653745) can0 0b4#00000000000000bc
(1784046015.653986) can0 025#00000fff787878a3
(1784046015.654253) can0 024#01ff01f7420280e8
(1784046015.659663) can0 224#0000000000000008
(1784046015.660298) can0 361#80000000
(1784046015.665506) can0 127#00100008000fbe15
(1784046015.665648) can0 020#0000072b
(1784046015.665882) can0 230#0000000100003a
(1784046015.666129) can0 024#020001f7420280ea
(1784046015.666368) can0 025#00000fff828282c1
(1784046015.667976) can0 260#000000000000006a
(1784046015.669231) can0 1c4#00000000000000cd
(1784046015.670579) can0 245#000000004c
(1784046015.671713) can0 320#0000000000080033
(1784046015.672606) can0 247#0600ff0000
(1784046015.677703) can0 020#0000072b
(1784046015.677939) can0 0b4#00000000000000bc
(1784046015.678179) can0 024#020001f7420280ea
(1784046015.678425) can0 025#00000fff787878a3
(1784046015.681894) can0 127#00100008000fbe15
(1784046015.683858) can0 224#0000000000000008
(1784046015.687983) can0 260#000000000000006a
(1784046015.689845) can0 020#0000072b
(1784046015.690031) can0 230#0000000100003a
(1784046015.690280) can0 024#020001f7420280ea
(1784046015.690526) can0 025#00000fff787878a3
(1784046015.692762) can0 1c4#00000000000000cd
(1784046015.694110) can0 245#000000004c
(1784046015.695829) can0 2a4#00000000ab
(1784046015.696172) can0 247#0600ff0000
(1784046015.698261) can0 127#00100008000fbe15
(1784046015.701275) can0 39b#0004001000
(1784046015.701848) can0 020#0000072b
(1784046015.702084) can0 0b4#00000000000000bc
(1784046015.702325) can0 025#00000fff787878a3
(1784046015.703101) can0 024#020001f7420280ea
(1784046015.707942) can0 224#0000000000000008
(1784046015.708169) can0 260#000000000000006a
(1784046015.713888) can0 020#0000072b
(1784046015.714078) can0 230#0000000100003a
(1784046015.714337) can0 025#00000fff787878a3
(1784046015.714627) can0 127#00100008000fbe15
(1784046015.715088) can0 024#020001f7420280ea
(1784046015.716327) can0 1c4#00000000000000cd
(1784046015.717649) can0 245#000000004c
(1784046015.719707) can0 247#0600ff0000
(1784046015.719947) can0 320#0000000000080033
(1784046015.721545) can0 6f9#0000000000000000
(1784046015.722384) can0 3a0#000000000000004c
(1784046015.723129) can0 440#4202001000000000
(1784046015.724539) can0 38e#2040000000000000
(1784046015.724807) can0 361#80000000
(1784046015.725887) can0 020#0000072b
(1784046015.726125) can0 0b4#00000000000000bc
(1784046015.726369) can0 025#00000fff787878a3
(1784046015.727090) can0 024#020001f7420280ea
(1784046015.727532) can0 387#000000003f3f3f3f
(1784046015.727951) can0 260#000000000000006a
(1784046015.731015) can0 127#00100008000fbe15
(1784046015.732017) can0 224#0000000000000008
(1784046015.737933) can0 020#0000072b
(1784046015.738117) can0 230#0000000100003a
(1784046015.738375) can0 025#00000fff787878a3
(1784046015.739099) can0 024#020001f8420280eb
(1784046015.739873) can0 1c4#00000000000000cd
(1784046015.741220) can0 245#000000004c
(1784046015.741820) can0 633#8100000000000000
(1784046015.743243) can0 247#0600ff0000
(1784046015.743991) can0 2a4#00000000ab
(1784046015.747398) can0 127#00100008000fbe15
(1784046015.747951) can0 260#000000000000006a
(1784046015.749923) can0 020#0000072b
(1784046015.750146) can0 0b4#00000000000000bc
(1784046015.750402) can0 025#00000fff787878a3
(1784046015.751085) can0 024#020001f7420280ea
(1784046015.756083) can0 224#0000000000000008
(1784046015.761547) can0 38f#0100000000000000
(1784046015.761944) can0 020#0000072b
(1784046015.762162) can0 230#0000000100003a
(1784046015.762409) can0 025#00000fff787878a3
(1784046015.763071) can0 024#020001f7420280ea
(1784046015.763434) can0 1c4#00000000000000cd
(1784046015.763779) can0 127#00100008000fbe15
(1784046015.764756) can0 245#000000004c
(1784046015.766784) can0 247#0600ff0000
(1784046015.768040) can0 260#000000000000006a
(1784046015.768277) can0 320#0000000000080033
(1784046015.774002) can0 020#0000072b
(1784046015.774254) can0 0b4#00000000000000bc
(1784046015.774479) can0 025#00000fff787878a3
(1784046015.775091) can0 024#020001f7420280ea
(1784046015.780127) can0 224#0000000000000008
(1784046015.780353) can0 127#00100008000fbe15
(1784046015.781102) can0 3bb#00000000
(1784046015.786061) can0 020#0000072b
(1784046015.786285) can0 230#0000000100003a
(1784046015.786524) can0 025#00000fff787878a3
(1784046015.786974) can0 1c4#00000000000000cd
(1784046015.787196) can0 024#020001f7420280ea
(1784046015.787903) can0 260#000000000000006a
(1784046015.788273) can0 245#000000004c
(1784046015.789314) can0 361#80000000
(1784046015.790356) can0 247#0600ff0000
(1784046015.792108) can0 2a4#00000000ab
(1784046015.796532) can0 127#00100008000fbe15
(1784046015.798119) can0 020#0000072b
(1784046015.798329) can0 0b4#00000000000000bc
(1784046015.798584) can0 025#00000fff787878a3
(1784046015.799060) can0 024#020001f8420280eb
(1784046015.801545) can0 389#0020000000000000
(1784046015.804188) can0 224#0000000000000008
(1784046015.804538) can0 458#5804001200000000
(1784046015.807932) can0 260#000000000000006a
(1784046015.810158) can0 020#0000072b
(1784046015.810370) can0 230#0000000100003a
(1784046015.810613) can0 025#00000fff787878a3
(1784046015.810860) can0 1c4#00000000000000cd
(1784046015.811103) can0 024#020001f8420280eb
(1784046015.811820) can0 245#000000004c
(1784046015.812909) can0 127#00100008000fbe15
(1784046015.813890) can0 247#0600ff0000
(1784046015.816221) can0 320#0000000000080033
(1784046015.822202) can0 020#0000072b
(1784046015.822440) can0 0b4#00000000000000bc
(1784046015.822673) can0 025#00000fff787878a3
(1784046015.823050) can0 024#020001f7420280ea
(1784046015.823423) can0 442#4302000002000000
(1784046015.824388) can0 3a0#000000000000004c
(1784046015.827982) can0 260#000000000000006a
(1784046015.828213) can0 224#0000000000000008
(1784046015.829284) can0 127#00100008000fbe15
(1784046015.833094) can0 621#1100000000000000
(1784046015.834089) can0 1c4#00000000000000cd
(1784046015.834237) can0 020#0000072b
(1784046015.834473) can0 230#0000000100003a
(1784046015.834715) can0 025#00000fff787878a3
(1784046015.835043) can0 024#020001f7420280ea
(1784046015.835386) can0 245#000000004c
(1784046015.837421) can0 247#0600ff0000
(1784046015.840255) can0 2a4#00000000ab
(1784046015.843113) can0 620#1000ffffb0100050
(1784046015.845664) can0 127#00100008000fbe15
(1784046015.846333) can0 020#0000072b
(1784046015.846576) can0 0b4#00000000000000bc
(1784046015.846821) can0 025#00000fff787878a3
(1784046015.847056) can0 024#020001f7420280ea
(1784046015.847946) can0 260#000000000000006a
(1784046015.852488) can0 224#0000000000000008
(1784046015.853083) can0 626#1c00300000000000
(1784046015.853779) can0 361#80000000
(1784046015.857649) can0 1c4#00000000000000cd
(1784046015.858384) can0 020#0000072b
(1784046015.858606) can0 230#0000000100003a
(1784046015.858847) can0 025#00000fff787878a3
(1784046015.859078) can0 024#020001f7420280ea
(1784046015.859278) can0 245#000000004c
(1784046015.859988) can0 38b#00000000b01d00
(1784046015.860967) can0 247#0600ff0000
(1784046015.862045) can0 127#00100008000fbe15
(1784046015.862288) can0 421#0000000000000000
(1784046015.863091) can0 622#1200000000000000
(1784046015.864558) can0 320#0000000000080033
(1784046015.867911) can0 260#000000000000006a
(1784046015.870541) can0 020#0000072b
(1784046015.870783) can0 0b4#00000000000000bc
(1784046015.871020) can0 025#00000fff787878a3
(1784046015.871263) can0 024#020001f7420280ea
(1784046015.873084) can0 623#1900000000000000
(1784046015.876642) can0 224#0000000000000008
(1784046015.878423) can0 127#00100008000fbe15
(1784046015.881195) can0 1c4#00000000000000cd
(1784046015.882469) can0 6c0#e40080a000000000
(1784046015.882607) can0 020#0000072b
(1784046015.882847) can0 230#0000000100003a
(1784046015.883084) can0 024#020001f7420280ea
(1784046015.883327) can0 025#00000fff828282c1
(1784046015.883519) can0 245#000000004c
(1784046015.883753) can0 624#1a00574949400000
(1784046015.884522) can0 247#0600ff0000
(1784046015.887934) can0 260#000000000000006a
(1784046015.888670) can0 499#d300268000000000
(1784046015.888860) can0 2a4#00000000ab
(1784046015.889673) can0 49a#00162b0061a01a70
(1784046015.892793) can0 49b#00a0252000004000
(1784046015.893095) can0 638#13001f0000000000
(1784046015.893546) can0 611#2100001200018542
(1784046015.893787) can0 3f9#702c5602000000f8
(1784046015.894802) can0 127#00100008000fbe15
(1784046015.894952) can0 020#0000072b
(1784046015.895212) can0 0b4#00000000000000bc
(1784046015.895451) can0 025#00000fff787878a3
(1784046015.895682) can0 49d#646300d2a332281b
(1784046015.895806) can0 353#0000
(1784046015.896069) can0 024#020001f8420280eb
(1784046015.896868) can0 4a8#0008000000000004
(1784046015.897869) can0 4ae#008000c00138024b
(1784046015.899933) can0 4af#0044d00000000000
(1784046015.900932) can0 224#0000000000000008
(1784046015.903061) can0 63b#16003a8a000011fc
(1784046015.904751) can0 1c4#00000000000000cd
(1784046015.906003) can0 245#000000004c
(1784046015.906840) can0 020#0000072b
(1784046015.907050) can0 230#0000000100003a
(1784046015.907297) can0 025#00000fff787878a3
(1784046015.907539) can0 4a0#06b8000000000000
(1784046015.907793) can0 4a1#00fe80808020c102
(1784046015.908028) can0 260#000000000000006a
(1784046015.908279) can0 024#020001f7420280ea
(1784046015.908458) can0 247#0600ff0000
(1784046015.908701) can0 4a2#190000c90035a901
(1784046015.911181) can0 127#00100008000fbe15
(1784046015.913000) can0 320#0000000000080033
(1784046015.913233) can0 63c#98004e4850130060
(1784046015.918300) can0 361#80000000
(1784046015.918882) can0 020#0000072b
(1784046015.919102) can0 0b4#00000000000000bc
(1784046015.919353) can0 025#00000fff787878a3
(1784046015.920021) can0 024#020001f7420280ea
(1784046015.922639) can0 394#0000
(1784046015.923036) can0 63d#99004348584e4200
(1784046015.923439) can0 3a0#000000000000004c
(1784046015.923665) can0 610#20000064c0fffd40
(1784046015.925040) can0 224#0000000000000008
(1784046015.927559) can0 127#00100008000fbe15
(1784046015.927881) can0 260#000000000000006a
(1784046015.928282) can0 1c4#00000000000000cd
(1784046015.929571) can0 245#000000004c
(1784046015.930909) can0 020#0000072b
(1784046015.931117) can0 230#0000000100003a
(1784046015.931399) can0 025#00000fff787878a3
(1784046015.931574) can0 247#0600ff0000
(1784046015.932018) can0 024#020001f7420280ea
(1784046015.933065) can0 680#d800010000000000
(1784046015.935466) can0 498#c1000000614f0000
(1784046015.937006) can0 2a4#00000000ab
(1784046015.937506) can0 49c#400d09a800502c00
(1784046015.939563) can0 4a7#00016c25000400c8
(1784046015.941543) can0 443#4d02002005000000
(1784046015.941771) can0 4ad#0000005d9d0001a0
(1784046015.942973) can0 020#0000072b
(1784046015.943201) can0 0b4#00000000000000bc
(1784046015.943452) can0 025#00000fff787878a3
(1784046015.943696) can0 3b7#0000000000000008
(1784046015.943951) can0 127#00100008000fbe15
(1784046015.944174) can0 024#020001f7420280ea
(1784046015.948134) can0 260#000000000000006a
(1784046015.949078) can0 224#0000000000000008
(1784046015.950395) can0 383#1100010000000000
(1784046015.950684) can0 4dc#1d00001000000000
(1784046015.951860) can0 1c4#00000000000000cd
(1784046015.953102) can0 245#000000004c
(1784046015.955006) can0 020#0000072b
(1784046015.955231) can0 230#0000000100003a
(1784046015.955461) can0 025#00000fff787878a3
(1784046015.955647) can0 247#0600ff0000
(1784046015.956006) can0 024#020001f7420280ea
(1784046015.960324) can0 127#00100008000fbe15
(1784046015.961117) can0 320#0000000000080033
(1784046015.967023) can0 020#0000072b
(1784046015.967246) can0 0b4#00000000000000bc
(1784046015.967503) can0 025#00000fff787878a3
(1784046015.967872) can0 260#000000000000006a
(1784046015.968108) can0 024#020001f7420280ea
(1784046015.973145) can0 224#0000000000000008
(1784046015.975404) can0 1c4#00000000000000cd
(1784046015.976694) can0 127#00100008000fbe15
(1784046015.976869) can0 245#000000004c
(1784046015.978707) can0 247#0600ff0000
(1784046015.979109) can0 020#0000072b
(1784046015.979332) can0 230#0000000100003a
(1784046015.979574) can0 025#00000fff787878a3
(1784046015.980002) can0 024#020001f7420280ea
(1784046015.982793) can0 361#80000000
(1784046015.985090) can0 2a4#00000000ab
(1784046015.987848) can0 260#000000000000006a
(1784046015.991141) can0 020#0000072b
(1784046015.991379) can0 0b4#00000000000000bc
(1784046015.991622) can0 025#00000fff787878a3
(1784046015.991993) can0 024#020001f7420280ea
(1784046015.992688) can0 3d3#0000
(1784046015.993075) can0 127#00100008000fbe15
(1784046015.997190) can0 224#0000000000000008
(1784046015.998969) can0 1c4#00000000000000cd
(1784046016.000185) can0 245#000000004c
(1784046016.002251) can0 247#0600ff0000
(1784046016.003206) can0 020#0000072b
(1784046016.003407) can0 230#0000000100003a
(1784046016.003640) can0 025#00000fff787878a3
(1784046016.003984) can0 024#020001f7420280ea
(1784046016.007897) can0 260#000000000000006a
(1784046016.009216) can0 320#0000000000080033
(1784046016.009449) can0 127#00100008000fbe15
(1784046016.015210) can0 020#0000072b
(1784046016.015433) can0 0b4#00000000000000bc
(1784046016.015683) can0 025#00000fff787878a3
(1784046016.015982) can0 024#020001f8420280eb
(1784046016.021250) can0 224#0000000000000008
(1784046016.022509) can0 1c4#00000000000000cd
(1784046016.023763) can0 245#000000004c
(1784046016.025377) can0 3a0#000000000000004c
(1784046016.025813) can0 127#00100008000fbe15
(1784046016.026009) can0 247#0600ff0000
(1784046016.027197) can0 020#0000072b
(1784046016.027423) can0 230#0000000100003a
(1784046016.027661) can0 025#00000fff787878a3
(1784046016.027910) can0 260#000000000000006a
(1784046016.028150) can0 024#020001f7420280ea
(1784046016.033190) can0 2a4#00000000ab
(1784046016.036848) can0 44d#5c02001101000000
(1784046016.039191) can0 020#0000072b
(1784046016.039439) can0 0b4#00000000000000bc
(1784046016.039678) can0 025#00000fff787878a3
(1784046016.039961) can0 024#020001f8420280eb
(1784046016.041529) can0 2fc#8000000000000000
(1784046016.042186) can0 127#00100008000fbe15
(1784046016.045286) can0 224#0000000000000008
(1784046016.046048) can0 1c4#00000000000000cd
(1784046016.047259) can0 245#000000004c
(1784046016.047438) can0 361#80000000
(1784046016.047830) can0 260#000000000000006a
(1784046016.049299) can0 247#0600ff0000
(1784046016.051228) can0 020#0000072b
(1784046016.051452) can0 230#0000000100003a
(1784046016.051689) can0 025#00000fff787878a3
(1784046016.051954) can0 024#020001f8420280eb
(1784046016.055542) can0 423#00
(1784046016.057384) can0 320#0000000000080033
(1784046016.058564) can0 127#00100008000fbe15
(1784046016.061528) can0 434#414000c000000000
(1784046016.063312) can0 020#0000072b
(1784046016.063561) can0 0b4#00000000000000bc
(1784046016.063799) can0 025#00000fff787878a3
(1784046016.064041) can0 024#020001f8420280eb
(1784046016.067906) can0 260#000000000000006a
(1784046016.069440) can0 224#0000000000000008
(1784046016.069688) can0 1c4#00000000000000cd
(1784046016.070790) can0 245#000000004c
(1784046016.072870) can0 247#0600ff0000
(1784046016.074942) can0 127#00100008000fbe15
(1784046016.075355) can0 020#0000072b
(1784046016.075582) can0 230#0000000100003a
(1784046016.075820) can0 025#00000fff787878a3
(1784046016.076062) can0 024#020001f8420280eb
(1784046016.080943) can0 4ac#18004000c10003a0
(1784046016.081519) can0 435#800505ffe02f4003
(1784046016.081709) can0 2a4#00000000ab
(1784046016.084527) can0 389#0020000000000000
(1784046016.087526) can0 458#5804001200000000
(1784046016.087696) can0 020#0000072b
(1784046016.087944) can0 0b4#00000000000000bc
(1784046016.088188) can0 025#00000fff828282c1
(1784046016.088437) can0 260#000000000000006a
(1784046016.088949) can0 024#020001f8420280eb
(1784046016.091320) can0 127#00100008000fbe15
(1784046016.093152) can0 1c4#00000000000000cd
(1784046016.093587) can0 224#0000000000000008
(1784046016.094334) can0 245#000000004c
(1784046016.096394) can0 247#0600ff0000
(1784046016.099596) can0 020#0000072b
(1784046016.099823) can0 230#0000000100003a
(1784046016.100063) can0 024#020001f7420280ea
(1784046016.100301) can0 025#00000fff787878a3
(1784046016.105658) can0 320#0000000000080033
(1784046016.107700) can0 127#00100008000fbe15
(1784046016.107947) can0 260#000000000000006a
(1784046016.111611) can0 020#0000072b
(1784046016.111859) can0 0b4#00000000000000bc
(1784046016.112099) can0 024#020001f7420280ea
(1784046016.112338) can0 025#00000fff787878a3
(1784046016.112507) can0 361#80000000
(1784046016.116692) can0 1c4#00000000000000cd
(1784046016.117714) can0 224#0000000000000008
(1784046016.117908) can0 245#000000004c
(1784046016.119926) can0 247#0600ff0000
(1784046016.123654) can0 020#0000072b
(1784046016.123880) can0 230#0000000100003a
(1784046016.124120) can0 024#020001f7420280ea
(1784046016.124359) can0 025#00000fff787878a3
(1784046016.124603) can0 127#00100008000fbe15
(1784046016.124851) can0 3a0#000000000000004c
(1784046016.127892) can0 260#000000000000006a
(1784046016.129680) can0 2a4#00000000ab
(1784046016.135675) can0 020#0000072b
(1784046016.135923) can0 0b4#00000000000000bc
(1784046016.136162) can0 025#00000fff787878a3
(1784046016.136931) can0 024#020001f7420280ea
(1784046016.137976) can0 620#1000ffffb0100050
(1784046016.140230) can0 45c#4002002101000000
(1784046016.140470) can0 127#00100008000fbe15
(1784046016.140718) can0 1c4#00000000000000cd
(1784046016.141434) can0 245#000000004c
(1784046016.141892) can0 224#0000000000000008
(1784046016.143474) can0 247#0600ff0000
(1784046016.143724) can0 3f9#702c5602000000f8
(1784046016.145477) can0 353#0000
(1784046016.147797) can0 260#000000000000006a
(1784046016.147967) can0 020#0000072b
(1784046016.148194) can0 230#0000000100003a
(1784046016.148432) can0 025#00000fff787878a3
(1784046016.148928) can0 024#020001f7420280ea
(1784046016.153915) can0 320#0000000000080033
(1784046016.154359) can0 4dd#1e00110200000000
(1784046016.156844) can0 127#00100008000fbe15
(1784046016.159790) can0 020#0000072b
(1784046016.160038) can0 0b4#00000000000000bc
(1784046016.160276) can0 025#00000fff787878a3
(1784046016.160922) can0 024#020001f7420280ea
(1784046016.163798) can0 1c4#00000000000000cd
(1784046016.164966) can0 245#000000004c
(1784046016.165930) can0 224#0000000000000008
(1784046016.167038) can0 247#0600ff0000
(1784046016.167786) can0 260#000000000000006a
(1784046016.171812) can0 020#0000072b
(1784046016.172039) can0 230#0000000100003a
(1784046016.172277) can0 025#00000fff787878a3
(1784046016.172961) can0 024#020001f7420280ea
(1784046016.173242) can0 127#00100008000fbe15
(1784046016.176265) can0 361#80000000
(1784046016.177918) can0 2a4#00000000ab
(1784046016.182081) can0 6c0#e40080a000000000
(1784046016.183897) can0 020#0000072b
(1784046016.184142) can0 0b4#00000000000000bc
(1784046016.184376) can0 025#00000fff787878a3
(1784046016.184932) can0 024#020001f7420280ea
(1784046016.187390) can0 1c4#00000000000000cd
(1784046016.187850) can0 260#000000000000006a
(1784046016.188531) can0 245#000000004c
(1784046016.189617) can0 127#00100008000fbe15
(1784046016.190034) can0 224#0000000000000008
(1784046016.190600) can0 247#0600ff0000
(1784046016.195924) can0 020#0000072b
(1784046016.196126) can0 230#0000000100003a
(1784046016.196382) can0 025#00000fff787878a3
(1784046016.196923) can0 024#020001f7420280ea
(1784046016.202032) can0 320#0000000000080033
(1784046016.205591) can0 4c6#0700020000000000
(1784046016.205987) can0 127#00100008000fbe15
(1784046016.207805) can0 260#000000000000006a
(1784046016.207983) can0 020#0000072b
(1784046016.208265) can0 0b4#00000000000000bc
(1784046016.208471) can0 025#00000fff787878a3
(1784046016.208924) can0 024#020001f7420280ea
(1784046016.210926) can0 1c4#00000000000000cd
(1784046016.212105) can0 245#000000004c
(1784046016.214041) can0 224#0000000000000008
(1784046016.214208) can0 247#0600ff0000
(1784046016.214471) can0 4c3#0300000100000000
(1784046016.220034) can0 020#0000072b
(1784046016.220256) can0 230#0000000100003a
(1784046016.220492) can0 025#00000fff787878a3
(1784046016.220915) can0 024#020001f7420280ea
(1784046016.222362) can0 127#00100008000fbe15
(1784046016.222513) can0 394#0000
(1784046016.223406) can0 3a0#000000000000004c
(1784046016.226015) can0 2a4#00000000ab
(1784046016.227783) can0 260#000000000000006a
(1784046016.232109) can0 020#0000072b
(1784046016.232350) can0 0b4#00000000000000bc
(1784046016.232590) can0 025#00000fff787878a3
(1784046016.232905) can0 024#020001f7420280ea
(1784046016.234493) can0 1c4#00000000000000cd
(1784046016.235634) can0 245#000000004c
(1784046016.237677) can0 247#0600ff0000
(1784046016.238184) can0 224#0000000000000008
(1784046016.238748) can0 127#00100008000fbe15
(1784046016.240747) can0 361#80000000
(1784046016.242940) can0 440#4202001000000000
(1784046016.244116) can0 020#0000072b
(1784046016.244335) can0 230#0000000100003a
(1784046016.244582) can0 025#00000fff787878a3
(1784046016.244824) can0 3b7#0000000000000008
(1784046016.245072) can0 024#020001f7420280ea
(1784046016.247817) can0 260#000000000000006a
(1784046016.250249) can0 320#0000000000080033
(1784046016.255140) can0 127#00100008000fbe15
(1784046016.256220) can0 020#0000072b
(1784046016.256456) can0 0b4#00000000000000bc
(1784046016.256709) can0 025#00000fff828282c1
(1784046016.256948) can0 024#020001f7420280ea
(1784046016.258026) can0 1c4#00000000000000cd
(1784046016.259171) can0 245#000000004c
(1784046016.261242) can0 247#0600ff0000
(1784046016.262423) can0 224#0000000000000008
(1784046016.267798) can0 260#000000000000006a
(1784046016.268337) can0 020#0000072b
(1784046016.268559) can0 230#0000000100003a
(1784046016.268803) can0 025#00000fff787878a3
(1784046016.269037) can0 024#020001f7420280ea
(1784046016.271513) can0 127#00100008000fbe15
(1784046016.274414) can0 382#3939380000000000
(1784046016.274579) can0 2a4#00000000ab
(1784046016.274842) can0 381#0000002000000000
(1784046016.280465) can0 020#0000072b
(1784046016.280703) can0 0b4#00000000000000bc
(1784046016.280944) can0 024#020001f7420280ea
(1784046016.281186) can0 025#00000fff787878a3
(1784046016.281567) can0 389#0020000000000000
(1784046016.281803) can0 1c4#00000000000000cd
(1784046016.282707) can0 245#000000004c
(1784046016.284558) can0 458#5804001200000000
(1784046016.284750) can0 247#0600ff0000
(1784046016.286551) can0 224#0000000000000008
(1784046016.287770) can0 260#000000000000006a
(1784046016.288003) can0 127#00100008000fbe15
(1784046016.292548) can0 020#0000072b
(1784046016.292733) can0 230#0000000100003a
(1784046016.292999) can0 024#020001f8420280eb
(1784046016.293226) can0 025#00000fff787878a3
(1784046016.298582) can0 320#0000000000080033
(1784046016.302606) can0 4c8#0900000000000000
(1784046016.304272) can0 127#00100008000fbe15
(1784046016.304564) can0 020#0000072b
(1784046016.304806) can0 0b4#00000000000000bc
(1784046016.305052) can0 024#020001f8420280eb
(1784046016.305305) can0 025#00000fff787878a3
(1784046016.305536) can0 1c4#00000000000000cd
(1784046016.305696) can0 361#80000000
(1784046016.306267) can0 245#000000004c
(1784046016.307985) can0 260#000000000000006a
(1784046016.308301) can0 247#0600ff0000
(1784046016.310605) can0 224#0000000000000008
(1784046016.316605) can0 020#0000072b
(1784046016.316788) can0 230#0000000100003a
(1784046016.317043) can0 024#020001f8420280eb
(1784046016.317289) can0 025#00000fff787878a3
(1784046016.320649) can0 127#00100008000fbe15
(1784046016.321992) can0 630#1700000000000000
(1784046016.322403) can0 3a0#000000000000004c
(1784046016.322593) can0 2a4#00000000ab
(1784046016.327730) can0 260#000000000000006a
(1784046016.328617) can0 020#0000072b
(1784046016.328863) can0 0b4#00000000000000bc
(1784046016.329104) can0 024#020001f8420280eb
(1784046016.329336) can0 025#00000fff787878a3
(1784046016.329591) can0 1c4#00000000000000cd
(1784046016.329810) can0 245#000000004c
(1784046016.330454) can0 632#8000000000000000
(1784046016.331758) can0 4c1#0100000200000000
(1784046016.331928) can0 247#0600ff0000
(1784046016.333379) can0 442#4302000002000000
(1784046016.334761) can0 224#0000000000000008
(1784046016.337026) can0 127#00100008000fbe15
(1784046016.339666) can0 635#8300000000000000
(1784046016.340688) can0 020#0000072b
(1784046016.340864) can0 230#0000000100003a
(1784046016.341120) can0 025#00000fff787878a3
(1784046016.341893) can0 024#020001f8420280eb
(1784046016.346818) can0 320#0000000000080033
(1784046016.347724) can0 260#000000000000006a
(1784046016.352253) can0 1c4#00000000000000cd
(1784046016.352677) can0 020#0000072b
(1784046016.352919) can0 0b4#00000000000000bc
(1784046016.353167) can0 025#00000fff787878a3
(1784046016.353398) can0 127#00100008000fbe15
(1784046016.353599) can0 245#000000004c
(1784046016.353886) can0 024#020001f8420280eb
(1784046016.355423) can0 247#0600ff0000
(1784046016.358823) can0 224#0000000000000008
(1784046016.364705) can0 020#0000072b
(1784046016.364917) can0 230#0000000100003a
(1784046016.365166) can0 025#00000fff787878a3
(1784046016.365918) can0 024#020001f8420280eb
(1784046016.366107) can0 4a6#000000001a1a1a00
(1784046016.367777) can0 260#000000000000006a
(1784046016.369793) can0 127#00100008000fbe15
(1784046016.369938) can0 361#80000000
(1784046016.370836) can0 2a4#00000000ab
(1784046016.375815) can0 1c4#00000000000000cd
(1784046016.376840) can0 020#0000072b
(1784046016.377071) can0 0b4#00000000000000bc
(1784046016.377316) can0 025#00000fff787878a3
(1784046016.377501) can0 245#000000004c
(1784046016.377867) can0 024#020001f7420280ea
(1784046016.378952) can0 247#0600ff0000
(1784046016.382934) can0 224#0000000000000008
(1784046016.386162) can0 127#00100008000fbe15
(1784046016.387777) can0 260#000000000000006a
(1784046016.388226) can0 499#d300268000000000
(1784046016.388850) can0 020#0000072b
(1784046016.389078) can0 230#0000000100003a
(1784046016.389321) can0 025#00000fff787878a3
(1784046016.389538) can0 49a#00162b0061a01a70
(1784046016.389871) can0 024#020001f7420280ea
(1784046016.392350) can0 49b#00a0252000004000
(1784046016.393329) can0 3f9#702c5602000000f8
(1784046016.394329) can0 49d#646300d2a332281b
(1784046016.394571) can0 380#0000000000003900
(1784046016.394865) can0 3a1#0000002040000000
(1784046016.395112) can0 320#0000000000080033
(1784046016.395358) can0 3b0#00c3005200000000
(1784046016.395478) can0 353#0000
(1784046016.396424) can0 4a8#0008000000000004
(1784046016.397416) can0 4ae#008000c00130024b
(1784046016.397878) can0 63b#16003a8a00001201
(1784046016.399350) can0 1c4#00000000000000cd
(1784046016.399593) can0 4af#0044d00000000000
(1784046016.400458) can0 245#000000004c
(1784046016.400898) can0 020#0000072b
(1784046016.401152) can0 0b4#00000000000000bc
(1784046016.401377) can0 025#00000fff787878a3
(1784046016.401864) can0 024#020001f7420280ea
(1784046016.402540) can0 127#00100008000fbe15
(1784046016.402715) can0 247#0600ff0000
(1784046016.406974) can0 224#0000000000000008
(1784046016.407200) can0 4a0#06b8000000000000
(1784046016.407458) can0 4a1#00fe80808020c102
(1784046016.407686) can0 4a2#190000ca0035a901
(1784046016.407945) can0 260#000000000000006a
(1784046016.412992) can0 020#0000072b
(1784046016.413202) can0 230#0000000100003a
(1784046016.413453) can0 025#00000fff787878a3
(1784046016.413873) can0 024#020001f7420280ea
(1784046016.418958) can0 127#00100008000fbe15
(1784046016.419088) can0 2a4#00000000ab
(1784046016.422923) can0 1c4#00000000000000cd
(1784046016.423357) can0 610#20000064c0fffd40
(1784046016.423993) can0 245#000000004c
(1784046016.424407) can0 3a0#000000000000004c
(1784046016.424983) can0 020#0000072b
(1784046016.425230) can0 0b4#00000000000000bc
(1784046016.425468) can0 025#00000fff787878a3
(1784046016.425856) can0 024#020001f7420280ea
(1784046016.426030) can0 247#0600ff0000
(1784046016.427776) can0 260#000000000000006a
(1784046016.431052) can0 224#0000000000000008
(1784046016.434227) can0 361#80000000
(1784046016.435205) can0 498#c1000000614f0000
(1784046016.435436) can0 127#00100008000fbe15
(1784046016.437050) can0 020#0000072b
(1784046016.437275) can0 230#0000000100003a
(1784046016.437508) can0 025#00000fff787878a3
(1784046016.437743) can0 49c#400d09a800502c00
(1784046016.438005) can0 024#020001f7420280ea
(1784046016.438230) can0 620#1000ffffb0100050
(1784046016.439289) can0 4a7#00016c25000400c8
(1784046016.441343) can0 4ad#0000005d9d0001a0
(1784046016.443126) can0 320#0000000000080033
(1784046016.446455) can0 1c4#00000000000000cd
(1784046016.447535) can0 245#000000004c
(1784046016.447752) can0 260#000000000000006a
(1784046016.449053) can0 020#0000072b
(1784046016.449293) can0 0b4#00000000000000bc
(1784046016.449530) can0 025#00000fff787878a3
(1784046016.449720) can0 247#0600ff0000
(1784046016.449961) can0 024#020001f7420280ea
(1784046016.451680) can0 127#00100008000fbe15
(1784046016.455163) can0 224#0000000000000008
(1784046016.460892) can0 399#00000000000000
(1784046016.461093) can0 020#0000072b
(1784046016.461343) can0 230#0000000100003a
(1784046016.461583) can0 025#00000fff828282c1
(1784046016.461820) can0 443#4d02002005000000
(1784046016.462071) can0 024#020001f7420280ea
(1784046016.467209) can0 2a4#00000000ab
(1784046016.467677) can0 260#000000000000006a
(1784046016.468059) can0 127#00100008000fbe15
(1784046016.470025) can0 1c4#00000000000000cd
(1784046016.471070) can0 245#000000004c
(1784046016.473125) can0 247#0600ff0000
(1784046016.473275) can0 020#0000072b
(1784046016.473534) can0 0b4#00000000000000bc
(1784046016.473776) can0 025#00000fff787878a3
(1784046016.474010) can0 024#020001f7420280ea
(1784046016.479405) can0 224#0000000000000008
(1784046016.481710) can0 6c0#e40080a000000000
(1784046016.484431) can0 127#00100008000fbe15
(1784046016.485308) can0 020#0000072b
(1784046016.485524) can0 230#0000000100003a
(1784046016.485770) can0 025#00000fff787878a3
(1784046016.486013) can0 024#020001f7420280ea
(1784046016.486484) can0 3b6#8064031000020100
(1784046016.487755) can0 260#000000000000006a
(1784046016.491446) can0 320#0000000000080033
(1784046016.493561) can0 1c4#00000000000000cd
(1784046016.494631) can0 245#000000004c
(1784046016.496660) can0 247#0600ff0000
(1784046016.497350) can0 020#0000072b
(1784046016.497595) can0 0b4#00000000000000bc
(1784046016.497840) can0 025#00000fff787878a3
(1784046016.498074) can0 024#020001f7420280ea
(1784046016.498716) can0 361#80000000
(1784046016.500280) can0 3b1#0000020a00080000
(1784046016.500806) can0 127#00100008000fbe15
(1784046016.503436) can0 224#0000000000000008
(1784046016.503685) can0 3b9#a30000
(1784046016.505792) can0 38a#0000000000
(1784046016.507695) can0 260#000000000000006a
(1784046016.509436) can0 020#0000072b
(1784046016.509640) can0 230#0000000100003a
(1784046016.509877) can0 024#020001f7420280ea
(1784046016.510117) can0 025#00000fff787878a3
(1784046016.515390) can0 2a4#00000000ab
(1784046016.517145) can0 1c4#00000000000000cd
(1784046016.517356) can0 127#00100008000fbe15
(1784046016.517498) can0 3d3#0000
(1784046016.518159) can0 245#000000004c
(1784046016.520208) can0 247#0600ff0000
(1784046016.521428) can0 020#0000072b
(1784046016.521670) can0 0b4#00000000000000bc
(1784046016.521913) can0 024#020001f8420280eb
(1784046016.522149) can0 025#00000fff787878a3
(1784046016.522399) can0 389#0020000000000000
(1784046016.522605) can0 394#0000
(1784046016.523414) can0 3a0#000000000000004c
(1784046016.525571) can0 458#5804001200000000
(1784046016.527484) can0 224#0000000000000008
(1784046016.527708) can0 260#000000000000006a
(1784046016.533447) can0 020#0000072b
(1784046016.533679) can0 127#00100008000fbe15
(1784046016.533921) can0 024#020001f8420280eb
(1784046016.534170) can0 025#00000fff787878a3
(1784046016.534400) can0 230#0000000100003a
(1784046016.539501) can0 320#0000000000080033
(1784046016.540669) can0 1c4#00000000000000cd
(1784046016.541735) can0 245#000000004c
(1784046016.543771) can0 247#0600ff0000
(1784046016.545472) can0 020#0000072b
(1784046016.545709) can0 0b4#00000000000000bc
(1784046016.545950) can0 024#020001f8420280eb
(1784046016.546193) can0 025#00000fff787878a3
(1784046016.546442) can0 3b7#0000000000000008
(1784046016.547733) can0 260#000000000000006a
(1784046016.549950) can0 127#00100008000fbe15
(1784046016.551521) can0 224#0000000000000008
(1784046016.557486) can0 020#0000072b
(1784046016.557702) can0 230#0000000100003a
(1784046016.557951) can0 024#020001f7420280ea
(1784046016.558186) can0 025#00000fff787878a3
(1784046016.562090) can0 44d#5c02001101000000
(1784046016.563198) can0 361#80000000
(1784046016.563500) can0 2a4#00000000ab
(1784046016.564240) can0 1c4#00000000000000cd
(1784046016.565265) can0 245#000000004c
(1784046016.566318) can0 127#00100008000fbe15
(1784046016.567368) can0 3bc#0020000000000000
(1784046016.567567) can0 247#0600ff0000
(1784046016.567807) can0 260#000000000000006a
(1784046016.569527) can0 020#0000072b
(1784046016.569738) can0 0b4#00000000000000bc
(1784046016.569990) can0 024#020001f7420280ea
(1784046016.570233) can0 025#00000fff787878a3
(1784046016.575667) can0 224#0000000000000008
(1784046016.580823) can0 4ac#28006000c20003a0
(1784046016.581531) can0 020#0000072b
(1784046016.581757) can0 230#0000000100003a
(1784046016.581994) can0 024#020001f7420280ea
(1784046016.582238) can0 025#00000fff787878a3
(1784046016.582704) can0 127#00100008000fbe15
(1784046016.587678) can0 260#000000000000006a
(1784046016.587915) can0 1c4#00000000000000cd
(1784046016.588164) can0 320#0000000000080033
(1784046016.588810) can0 245#000000004c
(1784046016.590838) can0 247#0600ff0000
(1784046016.593556) can0 020#0000072b
(1784046016.593795) can0 0b4#00000000000000bc
(1784046016.594042) can0 025#00000fff787878a3
(1784046016.594803) can0 024#020001f8420280eb
(1784046016.599083) can0 127#00100008000fbe15
(1784046016.599719) can0 224#0000000000000008
(1784046016.605598) can0 020#0000072b
(1784046016.605789) can0 230#0000000100003a
(1784046016.606039) can0 025#00000fff787878a3
(1784046016.606794) can0 024#020001f7420280ea
(1784046016.607685) can0 260#000000000000006a
(1784046016.611339) can0 1c4#00000000000000cd
(1784046016.611665) can0 2a4#00000000ab
(1784046016.612336) can0 245#000000004c
(1784046016.614382) can0 247#0600ff0000
(1784046016.615455) can0 127#00100008000fbe15
(1784046016.617629) can0 020#0000072b
(1784046016.617872) can0 0b4#00000000000000bc
(1784046016.618107) can0 025#00000fff787878a3
(1784046016.618784) can0 024#020001f7420280ea
(1784046016.623763) can0 224#0000000000000008
(1784046016.625442) can0 3a0#000000000000004c
(1784046016.627657) can0 260#000000000000006a
(1784046016.627805) can0 361#80000000
(1784046016.629697) can0 020#0000072b
(1784046016.629912) can0 230#0000000100003a
(1784046016.630159) can0 025#00000fff787878a3
(1784046016.630787) can0 024#020001f7420280ea
(1784046016.631838) can0 127#00100008000fbe15
(1784046016.634878) can0 1c4#00000000000000cd
(1784046016.635803) can0 320#0000000000080033
(1784046016.635964) can0 245#000000004c
(1784046016.637948) can0 247#0600ff0000
(1784046016.641849) can0 020#0000072b
(1784046016.642086) can0 0b4#00000000000000bc
(1784046016.642331) can0 025#00000fff787878a3
(1784046016.642785) can0 024#020001f7420280ea
(1784046016.643098) can0 3f9#702c5602000000f8
(1784046016.645048) can0 353#0000
(1784046016.647649) can0 260#000000000000006a
(1784046016.647935) can0 224#0000000000000008
(1784046016.648183) can0 420#00000000fdfe80a7
(1784046016.648423) can0 127#00100008000fbe15
(1784046016.653920) can0 020#0000072b
(1784046016.654113) can0 230#0000000100003a
(1784046016.654356) can0 025#00000fff787878a3
(1784046016.654785) can0 024#020001f7420280ea
(1784046016.658446) can0 1c4#00000000000000cd
(1784046016.659421) can0 245#000000004c
(1784046016.659877) can0 2a4#00000000ab
(1784046016.661481) can0 247#0600ff0000
(1784046016.663591) can0 45c#4002002101000000
(1784046016.664596) can0 127#00100008000fbe15
(1784046016.665984) can0 020#0000072b
(1784046016.666212) can0 0b4#00000000000000bc
(1784046016.666467) can0 025#00000fff828282c1
(1784046016.666767) can0 024#020001f7420280ea
(1784046016.667866) can0 260#000000000000006a
(1784046016.672133) can0 224#0000000000000008
(1784046016.673475) can0 61c#2600000000000007
(1784046016.678034) can0 020#0000072b
(1784046016.678229) can0 230#0000000100003a
(1784046016.678487) can0 025#00000fff787878a3
(1784046016.678767) can0 024#020001f7420280ea
(1784046016.680980) can0 127#00100008000fbe15
(1784046016.681984) can0 1c4#00000000000000cd
(1784046016.682990) can0 245#000000004c
(1784046016.684211) can0 320#0000000000080033
(1784046016.685016) can0 247#0600ff0000
(1784046016.687615) can0 260#000000000000006a
(1784046016.690078) can0 020#0000072b
(1784046016.690318) can0 0b4#00000000000000bc
(1784046016.690562) can0 025#00000fff787878a3
(1784046016.690790) can0 024#020001f7420280ea
(1784046016.692163) can0 361#80000000
(1784046016.696275) can0 224#0000000000000008
(1784046016.697350) can0 127#00100008000fbe15
(1784046016.701413) can0 39b#0004001000
(1784046016.702190) can0 020#0000072b
(1784046016.702407) can0 230#0000000100003a
(1784046016.702654) can0 025#00000fff787878a3
(1784046016.702890) can0 024#020001f7420280ea
(1784046016.705549) can0 1c4#00000000000000cd
(1784046016.706516) can0 245#000000004c
(1784046016.707600) can0 260#000000000000006a
(1784046016.708271) can0 2a4#00000000ab
(1784046016.708558) can0 247#0600ff0000
(1784046016.713735) can0 127#00100008000fbe15
(1784046016.714276) can0 020#0000072b
(1784046016.714520) can0 0b4#00000000000000bc
(1784046016.714767) can0 025#00000fff787878a3
(1784046016.715000) can0 024#020001f7420280ea
(1784046016.720346) can0 224#0000000000000008
(1784046016.721435) can0 3a0#000000000000004c
(1784046016.721680) can0 6f9#0000000000000000
(1784046016.724595) can0 38e#2040000000000000
(1784046016.726346) can0 020#0000072b
(1784046016.726566) can0 230#0000000100003a
(1784046016.726798) can0 024#020001f7420280ea
(1784046016.727039) can0 025#00000fff787878a3
(1784046016.727565) can0 387#000000003f3f3f3f
(1784046016.727807) can0 260#000000000000006a
(1784046016.729088) can0 1c4#00000000000000cd
(1784046016.730113) can0 127#00100008000fbe15
(1784046016.730289) can0 245#000000004c
(1784046016.732129) can0 247#0600ff0000
(1784046016.732388) can0 320#0000000000080033
(1784046016.737761) can0 620#1000ffffb0100050
(1784046016.738387) can0 020#0000072b
(1784046016.738635) can0 0b4#00000000000000bc
(1784046016.738892) can0 024#020001f7420280ea
(1784046016.739114) can0 025#00000fff787878a3
(1784046016.742199) can0 633#8100000000000000
(1784046016.744431) can0 224#0000000000000008
(1784046016.746491) can0 127#00100008000fbe15
(1784046016.747644) can0 260#000000000000006a
(1784046016.750443) can0 020#0000072b
(1784046016.750635) can0 230#0000000100003a
(1784046016.750899) can0 024#020001f7420280ea
(1784046016.751141) can0 025#00000fff787878a3
(1784046016.752658) can0 1c4#00000000000000cd
(1784046016.753601) can0 245#000000004c
(1784046016.755660) can0 247#0600ff0000
(1784046016.756471) can0 2a4#00000000ab
(1784046016.756669) can0 361#80000000
(1784046016.761580) can0 389#0020000000000000
(1784046016.762482) can0 020#0000072b
(1784046016.762716) can0 0b4#00000000000000bc
(1784046016.762958) can0 024#020001f7420280ea
(1784046016.763201) can0 025#00000fff787878a3
(1784046016.763450) can0 127#00100008000fbe15
(1784046016.763690) can0 440#4202001000000000
(1784046016.764574) can0 458#5804001200000000
(1784046016.767641) can0 260#000000000000006a
(1784046016.768605) can0 224#0000000000000008
(1784046016.774516) can0 020#0000072b
(1784046016.774688) can0 230#0000000100003a
(1784046016.774931) can0 025#00000fff787878a3
(1784046016.775741) can0 024#020001f7420280ea
(1784046016.776187) can0 1c4#00000000000000cd
(1784046016.777160) can0 245#000000004c
(1784046016.779256) can0 127#00100008000fbe15
(1784046016.779424) can0 247#0600ff0000
(1784046016.780658) can0 320#0000000000080033
(1784046016.781326) can0 6c0#e40080a000000000
(1784046016.781582) can0 38f#0100000000000000
(1784046016.786518) can0 020#0000072b
(1784046016.786758) can0 0b4#00000000000000bc
(1784046016.787005) can0 025#00000fff787878a3
(1784046016.787648) can0 260#000000000000006a
(1784046016.787890) can0 024#020001f7420280ea
(1784046016.792666) can0 224#0000000000000008
(1784046016.795632) can0 127#00100008000fbe15
(1784046016.798581) can0 020#0000072b
(1784046016.798776) can0 230#0000000100003a
(1784046016.799034) can0 025#00000fff787878a3
(1784046016.799738) can0 024#020001f7420280ea
(1784046016.799965) can0 1c4#00000000000000cd
(1784046016.800697) can0 245#000000004c
(1784046016.802737) can0 247#0600ff0000
(1784046016.804633) can0 2a4#00000000ab
(1784046016.804784) can0 3bb#00000000
(1784046016.807577) can0 260#000000000000006a
(1784046016.810630) can0 020#0000072b
(1784046016.810865) can0 0b4#00000000000000bc
(1784046016.811108) can0 025#00000fff787878a3
(1784046016.811728) can0 024#020001f8420280eb
(1784046016.812008) can0 127#00100008000fbe15
(1784046016.816741) can0 224#0000000000000008
(1784046016.821160) can0 361#80000000
(1784046016.822313) can0 394#0000
(1784046016.822730) can0 020#0000072b
(1784046016.822936) can0 230#0000000100003a
(1784046016.823234) can0 025#00000fff828282c1
(1784046016.823474) can0 1c4#00000000000000cd
(1784046016.823728) can0 3a0#000000000000004c
(1784046016.823970) can0 024#020001f8420280eb
(1784046016.824230) can0 245#000000004c
(1784046016.826318) can0 247#0600ff0000
(1784046016.827572) can0 260#000000000000006a
(1784046016.828376) can0 127#00100008000fbe15
(1784046016.828800) can0 320#0000000000080033
(1784046016.832729) can0 621#1100000000000000
(1784046016.834839) can0 020#0000072b
(1784046016.835065) can0 0b4#00000000000000bc
(1784046016.835318) can0 025#00000fff787878a3
(1784046016.835737) can0 024#01ff01f7420280e8
(1784046016.840952) can0 224#0000000000000008
(1784046016.844765) can0 127#00100008000fbe15
(1784046016.846871) can0 1c4#00000000000000cd
(1784046016.847016) can0 020#0000072b
(1784046016.847265) can0 230#0000000100003a
(1784046016.847509) can0 025#00000fff787878a3
(1784046016.847737) can0 024#020001f8420280eb
(1784046016.847917) can0 245#000000004c
(1784046016.848171) can0 260#000000000000006a
(1784046016.848413) can0 3b7#0000000000000008
(1784046016.848667) can0 626#1c00300000000000
(1784046016.849853) can0 247#0600ff0000
(1784046016.852987) can0 2a4#00000000ab
(1784046016.858727) can0 622#1200000000000000
(1784046016.858928) can0 020#0000072b
(1784046016.859196) can0 0b4#00000000000000bc
(1784046016.859423) can0 025#00000fff787878a3
(1784046016.859704) can0 024#020001f8420280eb
(1784046016.860085) can0 38b#00000000301d00
(1784046016.861142) can0 127#00100008000fbe15
(1784046016.862181) can0 421#0000000000000000
(1784046016.863419) can0 442#4302000002000000
(1784046016.865093) can0 224#0000000000000008
(1784046016.867578) can0 260#000000000000006a
(1784046016.868738) can0 623#1900000000000000
