(4154504685.483986) can0 2a4#00000000ab
(4154504685.486268) can0 1c4#00000000000000cd
(4154504685.486511) can0 260#000000000000006a
(4154504685.489989) can0 020#0000072b
(4154504685.490237) can0 0b4#00000000000000bc
(4154504685.490476) can0 025#0fff0fff787878b1
(4154504685.490720) can0 4a0#06b8000000000000
(4154504685.490964) can0 024#020001fd41ff80ec
(4154504685.491206) can0 4a1#000080808020c102
(4154504685.491445) can0 4a2#190000ca0034b001
(4154504685.494482) can0 127#0010000800009ae2
(4154504685.496085) can0 224#0000000000000008
(4154504685.498605) can0 245#000000004c
(4154504685.500622) can0 247#0600ff0000
(4154504685.502071) can0 020#0000072b
(4154504685.502284) can0 230#0000000100003a
(4154504685.502519) can0 025#0fff0fff787878b1
(4154504685.502764) can0 024#020001fd41ff80ec
(4154504685.506388) can0 260#000000000000006a
(4154504685.507660) can0 3b9#720000
(4154504685.508301) can0 320#0000000000080033
(4154504685.509805) can0 1c4#00000000000000cd
(4154504685.510861) can0 127#0010000800009ae2
(4154504685.514199) can0 020#0000072b
(4154504685.514440) can0 0b4#00000000000000bc
(4154504685.514677) can0 025#0fff0fff787878b1
(4154504685.514925) can0 024#020001fd41ff80ec
(4154504685.520407) can0 224#0000000000000008
(4154504685.522076) can0 245#000000004c
(4154504685.524145) can0 247#0600ff0000
(4154504685.526303) can0 020#0000072b
(4154504685.526522) can0 230#0000000100003a
(4154504685.526767) can0 024#020001fd41ff80ec
(4154504685.527004) can0 025#0fff0fff787878b1
(4154504685.527241) can0 127#0010000800009ae2
(4154504685.527490) can0 260#000000000000006a
(4154504685.528174) can0 6c0#e40080a000000000
(4154504685.528318) can0 361#80000000
(4154504685.532368) can0 2a4#00000000ab
(4154504685.533373) can0 1c4#00000000000000cd
(4154504685.535737) can0 4ac#98000000cd0003a0
(4154504685.538394) can0 020#0000072b
(4154504685.538625) can0 0b4#00000000000000bc
(4154504685.538868) can0 024#020001fd41ff80ec
(4154504685.539105) can0 025#0fff0fff787878b1
(4154504685.540719) can0 3a0#000000000000003a
(4154504685.543648) can0 127#0010000800009ae2
(4154504685.544438) can0 224#0000000000000008
(4154504685.545655) can0 245#000000004c
(4154504685.545890) can0 499#d300250000000000
(4154504685.546258) can0 45c#4002002101000000
(4154504685.546618) can0 260#000000000000006a
(4154504685.546848) can0 49a#0013250049401c78
(4154504685.547665) can0 247#0600ff0000
(4154504685.549874) can0 49b#00a0222000004000
(4154504685.550463) can0 020#0000072b
(4154504685.550685) can0 230#0000000100003a
(4154504685.550922) can0 025#0fff0fff787878b1
(4154504685.551207) can0 3f9#702c5602000000f8
(0.000095) can0 024#020001fd41ff80ec
(0.000352) can0 49d#5f5e01509d19e698
(0.001139) can0 353#0000
(0.002324) can0 4a8#0006a00000000004
(0.003323) can0 4ae#008000c001280248
(0.004981) can0 320#0000000000080033
(0.005294) can0 1c4#00000000000000cd
(0.005540) can0 4af#0044d00000000000
(0.008415) can0 127#0010000800009ae2
(0.010952) can0 020#0000072b
(0.011181) can0 0b4#00000000000000bc
(0.011433) can0 025#0fff0fff828282cf
(0.012101) can0 024#020001fd41ff80ec
(0.014807) can0 260#000000000000006a
(0.017092) can0 224#0000000000000008
(0.017578) can0 245#000000004c
(0.019641) can0 247#0600ff0000
(0.022975) can0 020#0000072b
(0.023184) can0 230#0000000100003a
(0.023430) can0 025#0fff0fff787878b1
(0.024094) can0 024#020001fd41ff80ec
(0.024777) can0 127#0010000800009be3
(0.028870) can0 1c4#00000000000000cd
(0.029053) can0 2a4#00000000ab
(0.029708) can0 394#0000
(0.034783) can0 260#000000000000006a
(0.035010) can0 020#0000072b
(0.035261) can0 0b4#00000000000000bc
(0.035494) can0 025#0fff0fff787878b1
(0.036093) can0 024#020001fd41ff80ec
(0.038104) can0 3bc#0020000000000000
(0.041200) can0 224#0000000000000008
(0.041395) can0 127#0010000800009be3
(0.041595) can0 245#000000004c
(0.041769) can0 361#80000000
(0.042194) can0 399#00000000000000
(0.043182) can0 247#0600ff0000
(0.047054) can0 020#0000072b
(0.047248) can0 230#0000000100003a
(0.047483) can0 025#0fff0fff787878b1
(0.048087) can0 024#020001fd41ff80ec
(0.052403) can0 1c4#00000000000000cd
(0.053230) can0 320#0000000000080033
(0.054836) can0 260#000000000000006a
(0.057531) can0 127#0010000800009be3
(0.059113) can0 020#0000072b
(0.059352) can0 0b4#00000000000000bc
(0.059591) can0 025#0fff0fff787878b1
(0.060077) can0 024#020001fd41ff80ec
(0.064644) can0 245#000000004c
(0.065225) can0 224#0000000000000008
(0.066725) can0 247#0600ff0000
(0.071149) can0 020#0000072b
(0.071356) can0 230#0000000100003a
(0.071596) can0 025#0fff0fff787878b1
(0.072072) can0 024#020001fd420080ee
(0.073913) can0 127#0010000800009be3
(0.074153) can0 38f#0100000000000000
(0.074783) can0 260#000000000000006a
(0.075973) can0 1c4#00000000000000cd
(0.077181) can0 2a4#00000000ab
(0.081073) can0 38b#00000000ac1900
(0.083176) can0 421#0000000000000000
(0.083305) can0 020#0000072b
(0.083550) can0 0b4#00000000000000bc
(0.083795) can0 025#0fff0fff787878b1
(0.084075) can0 024#020001fd420080ee
(0.088235) can0 245#000000004c
(0.089291) can0 224#0000000000000008
(0.090337) can0 127#0010000800009be3
(0.090475) can0 247#0600ff0000
(0.091118) can0 3a0#000000000000003a
(0.094832) can0 260#000000000000006a
(0.095288) can0 020#0000072b
(0.095505) can0 230#0000000100003a
(0.095750) can0 025#0fff0fff787878b1
(0.095992) can0 440#4202001000000000
(0.096224) can0 024#020001fd420080ee
(0.099542) can0 1c4#00000000000000cd
(0.101310) can0 320#0000000000080033
(0.105617) can0 361#80000000
(0.106655) can0 127#0010000800009be3
(0.107285) can0 020#0000072b
(0.107533) can0 0b4#00000000000000bc
(0.107770) can0 025#0fff0fff787878b1
(0.108056) can0 024#020001fd420080ee
(0.111743) can0 245#000000004c
(0.113338) can0 224#0000000000000008
(0.113771) can0 247#0600ff0000
(0.114848) can0 260#000000000000006a
(0.119327) can0 020#0000072b
(0.119513) can0 230#0000000100003a
(0.119752) can0 025#0fff0fff787878b1
(0.120054) can0 024#020001fd420080ee
(0.123038) can0 127#0010000800009be3
(0.123284) can0 1c4#00000000000000cd
(0.125292) can0 2a4#00000000ab
(0.131336) can0 020#0000072b
(0.131561) can0 0b4#00000000000000bc
(0.131805) can0 025#0fff0fff787878b1
(0.132076) can0 024#020001fd420080ee
(0.134065) can0 389#0020000000000000
(0.134769) can0 260#000000000000006a
(0.135283) can0 245#000000004c
(0.137070) can0 458#5804001200000000
(0.137401) can0 224#0000000000000008
(0.137594) can0 247#0600ff0000
(0.139435) can0 127#0010000800009be3
(0.143379) can0 020#0000072b
(0.143596) can0 230#0000000100003a
(0.143837) can0 025#0fff0fff787878b1
(0.144077) can0 024#020001fd420080ee
(0.146634) can0 1c4#00000000000000cd
(0.149571) can0 320#0000000000080033
(0.154753) can0 260#000000000000006a
(0.155495) can0 020#0000072b
(0.155737) can0 0b4#00000000000000bc
(0.155977) can0 025#0fff0fff787878b1
(0.156214) can0 024#020001fd420080ee
(0.156461) can0 127#0010000800009be3
(0.156702) can0 3b7#0000000000000008
(0.158834) can0 245#000000004c
(0.160893) can0 247#0600ff0000
(0.161660) can0 224#0000000000000008
(0.167507) can0 020#0000072b
(0.167726) can0 230#0000000100003a
(0.167961) can0 025#0fff0fff787878b1
(0.168196) can0 024#020001fd420080ee
(0.170097) can0 361#80000000
(0.170341) can0 1c4#00000000000000cd
(0.171119) can0 611#21000012000184f8
(0.172196) can0 127#0010000800009be3
(0.173683) can0 2a4#00000000ab
(0.174818) can0 260#000000000000006a
(0.179715) can0 020#0000072b
(0.179962) can0 0b4#00000000000000bc
(0.180191) can0 024#020001fd420080ee
(0.180423) can0 025#0fff0fff787878b1
(0.182402) can0 245#000000004c
(0.184416) can0 247#0600ff0000
(0.185779) can0 224#0000000000000008
(0.188577) can0 127#0010000800009be3
(0.190155) can0 3a0#000000000000003a
(0.191073) can0 442#4302000002000000
(0.191315) can0 630#1700000000000000
(0.191801) can0 020#0000072b
(0.192034) can0 230#0000000100003a
(0.192264) can0 025#0fff0fff787878b1
(0.193069) can0 024#020001fd420080ee
(0.193737) can0 1c4#00000000000000cd
(0.194734) can0 260#000000000000006a
(0.197894) can0 320#0000000000080033
(0.200204) can0 632#8000000000000000
(0.201188) can0 610#20000064c0fffd40
(0.203862) can0 020#0000072b
(0.204106) can0 0b4#00000000000000bc
(0.204335) can0 025#0fff0fff787878b1
(0.204952) can0 127#0010000800009be3
(0.205187) can0 024#020001fd420080ee
(0.205843) can0 620#1000ffffb0100050
(0.206027) can0 245#000000004c
(0.207976) can0 247#0600ff0000
(0.210019) can0 224#0000000000000008
(0.211335) can0 635#8300000000000000
(0.214163) can0 38a#0000000000
(0.214744) can0 260#000000000000006a
(0.215945) can0 020#0000072b
(0.216167) can0 230#0000000100003a
(0.216396) can0 025#0fff0fff787878b1
(0.217064) can0 024#020001fd420080ee
(0.217314) can0 1c4#00000000000000cd
(0.220168) can0 4dc#1d00001000000000
(0.221327) can0 127#0010000800009be3
(0.222041) can0 2a4#00000000ab
(0.227967) can0 020#0000072b
(0.228206) can0 0b4#00000000000000bc
(0.228436) can0 025#0fff0fff787878b1
(0.229061) can0 024#020001fd420080ee
(0.229452) can0 245#000000004c
(0.230478) can0 3bb#00000000
(0.231540) can0 247#0600ff0000
(0.234112) can0 224#0000000000000008
(0.234578) can0 361#80000000
(0.234825) can0 260#000000000000006a
(0.237709) can0 127#0010000800009ae2
(0.239987) can0 020#0000072b
(0.240202) can0 230#0000000100003a
(0.240443) can0 025#0fff0fff828282cf
(0.240854) can0 1c4#00000000000000cd
(0.241090) can0 024#020001fd420080ee
(0.246131) can0 320#0000000000080033
(0.248978) can0 3f9#702c5602000000f8
(0.250921) can0 353#0000
(0.252047) can0 020#0000072b
(0.252282) can0 0b4#00000000000000bc
(0.252522) can0 025#0fff0fff787878b1
(0.253004) can0 245#000000004c
(0.253244) can0 024#020001fd420080ee
(0.254074) can0 127#0010000800009ae2
(0.254772) can0 260#000000000000006a
(0.255059) can0 247#0600ff0000
(0.258133) can0 224#0000000000000008
(0.264072) can0 020#0000072b
(0.264297) can0 230#0000000100003a
(0.264531) can0 025#0fff0fff787878b1
(0.264778) can0 1c4#00000000000000cd
(0.265053) can0 024#020001fd420080ee
(0.270123) can0 2a4#00000000ab
(0.270460) can0 127#0010000800009be3
(0.274757) can0 260#000000000000006a
(0.276078) can0 020#0000072b
(0.276326) can0 0b4#00000000000000bc
(0.276560) can0 025#0fff0fff787878b1
(0.276753) can0 245#000000004c
(0.277012) can0 6c0#e40080a000000000
(0.277259) can0 024#020001fd420080ee
(0.278599) can0 247#0600ff0000
(0.282190) can0 224#0000000000000008
(0.286849) can0 127#0010000800009be3
(0.287957) can0 1c4#00000000000000cd
(0.288176) can0 020#0000072b
(0.288401) can0 230#0000000100003a
(0.288641) can0 025#0fff0fff787878b1
(0.289049) can0 024#020001fd420080ee
(0.292166) can0 3a0#000000000000003a
(0.294211) can0 320#0000000000080033
(0.294753) can0 260#000000000000006a
(0.299059) can0 361#80000000
(0.300106) can0 245#000000004c
(0.300263) can0 020#0000072b
(0.300518) can0 0b4#00000000000000bc
(0.300757) can0 025#0fff0fff787878b1
(0.301039) can0 024#020001fd420080ee
(0.302158) can0 247#0600ff0000
(0.303221) can0 127#0010000800009ae2
(0.306254) can0 224#0000000000000008
(0.311517) can0 1c4#00000000000000cd
(0.312263) can0 020#0000072b
(0.312491) can0 230#0000000100003a
(0.312721) can0 025#0fff0fff787878b1
(0.313041) can0 024#020001fd420080ee
(0.314075) can0 443#4d02002005000000
(0.314701) can0 260#000000000000006a
(0.318261) can0 2a4#00000000ab
(0.319592) can0 127#0010000800009ae2
(0.323642) can0 245#000000004c
(0.324283) can0 020#0000072b
(0.324518) can0 0b4#00000000000000bc
(0.324753) can0 025#0fff0fff787878b1
(0.325036) can0 024#020001fd420080ee
(0.325702) can0 247#0600ff0000
(0.329515) can0 394#0000
(0.330370) can0 224#0000000000000008
(0.330869) can0 621#1100000000000000
(0.334731) can0 260#000000000000006a
(0.335049) can0 1c4#00000000000000cd
(0.335982) can0 127#0010000800009ae2
(0.336296) can0 020#0000072b
(0.336526) can0 230#0000000100003a
(0.336760) can0 025#0fff0fff787878b1
(0.337034) can0 024#020001fd420080ee
(0.340828) can0 622#1200000000000000
(0.342436) can0 320#0000000000080033
(0.347187) can0 245#000000004c
(0.348369) can0 020#0000072b
(0.348608) can0 0b4#00000000000000bc
(0.348832) can0 025#0fff0fff787878b1
(0.349077) can0 024#020001fd420080ee
(0.349258) can0 247#0600ff0000
(0.350813) can0 623#1900000000000000
(0.352360) can0 127#0010000800009ae2
(0.354510) can0 224#0000000000000008
(0.354769) can0 260#000000000000006a
(0.358619) can0 1c4#00000000000000cd
(0.360436) can0 020#0000072b
(0.360650) can0 230#0000000100003a
(0.360882) can0 025#0fff0fff787878b1
(0.361123) can0 024#020001fd420080ee
(0.363550) can0 361#80000000
(0.365850) can0 624#1a00574949400000
(0.366589) can0 2a4#00000000ab
(0.368723) can0 127#0010000800009ae2
(0.369566) can0 4c8#0900000000000000
(0.370728) can0 245#000000004c
(0.372623) can0 020#0000072b
(0.372862) can0 0b4#00000000000000bc
(0.373110) can0 024#020001fd420080ee
(0.373334) can0 025#0fff0fff787878b1
(0.373522) can0 247#0600ff0000
(0.374057) can0 389#0020000000000000
(0.374748) can0 260#000000000000006a
(0.375796) can0 626#1c00300000000000
(0.377054) can0 458#5804001200000000
(0.378682) can0 224#0000000000000008
(0.382176) can0 1c4#00000000000000cd
(0.384739) can0 020#0000072b
(0.384948) can0 230#0000000100003a
(0.385190) can0 024#020001fd420080ee
(0.385432) can0 025#0fff0fff787878b1
(0.385670) can0 127#0010000800009be3
(0.385914) can0 638#13001f0000000000
(0.387166) can0 3d3#0000
(0.390809) can0 320#0000000000080033
(0.391165) can0 3a0#000000000000003a
(0.394279) can0 245#000000004c
(0.394678) can0 260#000000000000006a
(0.395795) can0 63b#16003a6b00000356
(0.396311) can0 247#0600ff0000
(0.396820) can0 020#0000072b
(0.397053) can0 0b4#00000000000000bc
(0.397297) can0 025#0fff0fff787878b1
(0.398029) can0 024#020001fd420080ee
(0.401495) can0 127#0010000800009be3
(0.403018) can0 224#0000000000000008
(0.405728) can0 1c4#00000000000000cd
(0.408959) can0 020#0000072b
(0.409167) can0 230#0000000100003a
(0.409408) can0 025#0fff0fff828282cf
(0.410019) can0 024#020001fd420080ee
(0.410797) can0 63c#98004e4850130060
(0.411334) can0 44d#5c02001101000000
(0.411856) can0 498#c10000004c470000
(0.413900) can0 49c#40100ca800503500
(0.414726) can0 260#000000000000006a
(0.414984) can0 2a4#00000000ab
(0.415953) can0 4a7#00006c3f000500c8
(0.417875) can0 127#0010000800009be3
(0.418106) can0 4ad#0000005d9d0003c0
(0.418295) can0 245#000000004c
(0.419227) can0 4c6#0700020000000000
(0.419881) can0 247#0600ff0000
(0.420953) can0 020#0000072b
(0.421199) can0 0b4#00000000000000bc
(0.421445) can0 025#0fff0fff787878b1
(0.422025) can0 024#020001fd420080ee
(0.425803) can0 63d#99004348584e4200
(0.427043) can0 224#0000000000000008
(0.428076) can0 361#80000000
(0.429268) can0 1c4#00000000000000cd
(0.432981) can0 020#0000072b
(0.433193) can0 230#0000000100003a
(0.433431) can0 025#0fff0fff787878b1
(0.433673) can0 420#00000000fdfe80a7
(0.434019) can0 024#020001fd420080ee
(0.434256) can0 127#0010000800009be3
(0.434699) can0 260#000000000000006a
(0.435808) can0 680#d800010000000000
(0.439089) can0 320#0000000000080033
(0.439312) can0 4a0#06b8000000000000
(0.439558) can0 4a1#000080808020c102
(0.439793) can0 4a2#190000ca0034b001
(0.441366) can0 245#000000004c
(0.443418) can0 247#0600ff0000
(0.444994) can0 020#0000072b
(0.445230) can0 0b4#00000000000000bc
(0.445465) can0 025#0fff0fff787878b1
(0.446071) can0 024#020001fd420080ee
(0.450650) can0 127#0010000800009be3
(0.451112) can0 224#0000000000000008
(0.452827) can0 1c4#00000000000000cd
(0.454752) can0 260#000000000000006a
(0.457071) can0 020#0000072b
(0.457293) can0 230#0000000100003a
(0.457524) can0 025#0fff0fff787878b1
(0.457776) can0 3b7#0000000000000008
(0.458022) can0 024#020001fd420080ee
(0.460193) can0 3a1#0000002040000000
(0.463058) can0 2a4#00000000ab
(0.464932) can0 245#000000004c
(0.467014) can0 127#0010000800009be3
(0.467197) can0 247#0600ff0000
(0.469108) can0 020#0000072b
(0.469350) can0 0b4#00000000000000bc
(0.469589) can0 025#0fff0fff787878b1
(0.470010) can0 024#020001fd420080ee
(0.474756) can0 260#000000000000006a
(0.475141) can0 224#0000000000000008
(0.476359) can0 1c4#00000000000000cd
(0.481132) can0 020#0000072b
(0.481329) can0 230#0000000100003a
(0.481573) can0 025#0fff0fff787878b1
(0.482012) can0 024#020101fd420080ef
(0.483393) can0 127#0010000800009be3
(0.483999) can0 4ac#18004000ce0003a0
(0.487159) can0 320#0000000000080033
(0.488456) can0 245#000000004c
(0.490181) can0 3a0#000000000000003a
(0.490494) can0 247#0600ff0000
(0.492541) can0 361#80000000
(0.493138) can0 020#0000072b
(0.493408) can0 0b4#00000000000000bc
(0.493626) can0 025#0fff0fff787878b1
(0.493869) can0 499#d300250000000000
(0.494110) can0 024#020101fd420080ef
(0.494626) can0 49a#0013250049401c78
(0.494873) can0 260#000000000000006a
(0.497749) can0 49b#00a0222000004000
(0.498748) can0 3f9#702c5602000000f8
(0.499179) can0 224#0000000000000008
(0.499765) can0 127#0010000800009be3
(0.500019) can0 1c4#00000000000000cd
(0.500248) can0 49d#5f5e01509d19e698
(0.500680) can0 353#0000
(0.501841) can0 4a8#0006a00000000004
(0.502827) can0 4ae#008000c001280248
(0.504899) can0 4af#0044d00000000000
(0.505165) can0 020#0000072b
(0.505388) can0 230#0000000100003a
(0.505629) can0 025#0fff0fff787878b1
(0.505867) can0 620#1000ffffb0100050
(0.506106) can0 024#020101fd420080ef
(0.511150) can0 2a4#00000000ab
(0.511971) can0 245#000000004c
(0.514040) can0 247#0600ff0000
(0.514408) can0 45c#4002002101000000
(0.514654) can0 260#000000000000006a
(0.516120) can0 127#0010000800009be3
(0.517150) can0 020#0000072b
(0.517401) can0 0b4#00000000000000bc
(0.517635) can0 025#0fff0fff787878b1
(0.517989) can0 024#020101fd420080ef
(0.520157) can0 3b0#009d004c00000000
(0.523247) can0 224#0000000000000008
(0.523493) can0 1c4#00000000000000cd
(0.529192) can0 020#0000072b
(0.529416) can0 230#0000000100003a
(0.529654) can0 025#0fff0fff787878b1
(0.529978) can0 024#020101fd420080ef
(0.532498) can0 127#0010000800009be3
(0.533686) can0 4c1#0100000200000000
(0.534064) can0 2fc#8000000000000000
(0.534710) can0 260#000000000000006a
(0.535332) can0 320#0000000000080033
(0.535516) can0 245#000000004c
(0.537576) can0 247#0600ff0000
(0.541220) can0 020#0000072b
(0.541471) can0 0b4#00000000000000bc
(0.541705) can0 025#0fff0fff787878b1
(0.541979) can0 024#020101fd420080ef
(0.547014) can0 1c4#00000000000000cd
(0.547387) can0 224#0000000000000008
(0.548877) can0 127#0010000800009be3
(0.553251) can0 020#0000072b
(0.553478) can0 230#0000000100003a
(0.553714) can0 025#0fff0fff787878b1
(0.553976) can0 024#020101fd420080ef
(0.554227) can0 434#414000c000000000
(0.554639) can0 260#000000000000006a
(0.556994) can0 361#80000000
(0.559081) can0 245#000000004c
(0.559380) can0 2a4#00000000ab
(0.561107) can0 247#0600ff0000
(0.565256) can0 127#0010000800009be3
(0.565426) can0 020#0000072b
(0.565675) can0 0b4#00000000000000bc
(0.565911) can0 025#0fff0fff787878b1
(0.566151) can0 024#020101fd420080ef
(0.570553) can0 1c4#00000000000000cd
(0.571174) can0 380#0000000000002f00
(0.571544) can0 224#0000000000000008
(0.574054) can0 435#800505ffe02f4003
(0.574650) can0 260#000000000000006a
(0.576260) can0 6c0#e40080a000000000
(0.577610) can0 020#0000072b
(0.577837) can0 230#0000000100003a
(0.578077) can0 024#020101fd420080ef
(0.578313) can0 025#0fff0fff787878b1
(0.581634) can0 127#0010000800009be3
(0.582616) can0 245#000000004c
(0.583688) can0 320#0000000000080033
(0.584652) can0 247#0600ff0000
(0.589168) can0 3a0#000000000000003a
(0.589650) can0 020#0000072b
(0.589899) can0 0b4#00000000000000bc
(0.590139) can0 024#020101fd420080ef
(0.590375) can0 025#0fff0fff787878b1
(0.594119) can0 1c4#00000000000000cd
(0.594699) can0 260#000000000000006a
(0.595800) can0 224#0000000000000008
(0.598013) can0 127#0010000800009be3
(0.601725) can0 020#0000072b
(0.601955) can0 230#0000000100003a
(0.602188) can0 025#0fff0fff787878b1
(0.602976) can0 024#020101fd420080ef
(0.606145) can0 245#000000004c
(0.607839) can0 2a4#00000000ab
(0.608217) can0 247#0600ff0000
(0.613777) can0 020#0000072b
(0.614026) can0 0b4#00000000000000bc
(0.614274) can0 389#0020000000000000
(0.614517) can0 025#0fff0fff828282cf
(0.614758) can0 127#0010000800009be3
(0.614998) can0 024#020101fd420080ef
(0.615247) can0 260#000000000000006a
(0.615747) can0 440#4202001000000000
(0.617061) can0 458#5804001200000000
(0.617659) can0 1c4#00000000000000cd
(0.619923) can0 224#0000000000000008
(0.621489) can0 361#80000000
(0.625803) can0 020#0000072b
(0.626030) can0 230#0000000100003a
(0.626266) can0 025#0fff0fff787878b1
(0.626970) can0 024#020101fd420080ef
(0.629373) can0 394#0000
(0.629696) can0 245#000000004c
(0.630770) can0 127#0010000800009be3
(0.631751) can0 247#0600ff0000
(0.632000) can0 320#0000000000080033
(0.634645) can0 260#000000000000006a
(0.637865) can0 020#0000072b
(0.638114) can0 0b4#00000000000000bc
(0.638350) can0 025#0fff0fff787878b1
(0.638968) can0 024#020101fd420080ef
(0.641226) can0 1c4#00000000000000cd
(0.643591) can0 4a6#0000000022222200
(0.643985) can0 224#0000000000000008
(0.647148) can0 127#0010000800009be3
(0.649948) can0 020#0000072b
(0.650170) can0 230#0000000100003a
(0.650407) can0 025#0fff0fff787878b1
(0.650967) can0 024#020101fd420080ef
(0.653018) can0 423#00
(0.653258) can0 245#000000004c
(0.654069) can0 6f9#0000000000000000
(0.654657) can0 260#000000000000006a
(0.655283) can0 247#0600ff0000
(0.655962) can0 2a4#00000000ab
(0.657067) can0 38e#2040000000000000
(0.660089) can0 387#000000003f3f3f3f
(0.662074) can0 020#0000072b
(0.662268) can0 0b4#00000000000000bc
(0.662510) can0 025#0fff0fff787878b1
(0.662981) can0 024#020101fd420080ef
(0.663543) can0 127#0010000800009be3
(0.664781) can0 1c4#00000000000000cd
(0.668066) can0 224#0000000000000008
(0.674061) can0 020#0000072b
(0.674284) can0 230#0000000100003a
(0.674518) can0 025#0fff0fff787878b1
(0.674763) can0 260#000000000000006a
(0.675007) can0 024#020001fd420080ee
(0.676807) can0 245#000000004c
(0.678841) can0 247#0600ff0000
(0.679922) can0 127#0010000800009be3
(0.680165) can0 320#0000000000080033
(0.686034) can0 361#80000000
(0.686174) can0 020#0000072b
(0.686436) can0 0b4#00000000000000bc
(0.686677) can0 025#0fff0fff787878b1
(0.686969) can0 024#020001fd420080ee
(0.688347) can0 1c4#00000000000000cd
(0.691202) can0 3a0#000000000000003a
(0.692126) can0 224#0000000000000008
(0.694649) can0 260#000000000000006a
(0.696299) can0 127#0010000800009be3
(0.698128) can0 020#0000072b
(0.698351) can0 230#0000000100003a
(0.698586) can0 025#0fff0fff787878b1
(0.698971) can0 024#020001fd420080ee
(0.700338) can0 245#000000004c
(0.701083) can0 610#20000064c0fffd40
(0.702410) can0 247#0600ff0000
(0.704130) can0 2a4#00000000ab
(0.710134) can0 020#0000072b
(0.710369) can0 0b4#00000000000000bc
(0.710604) can0 025#0fff0fff787878b1
(0.710970) can0 024#020001fd420080ee
(0.711211) can0 442#4302000002000000
(0.711880) can0 1c4#00000000000000cd
(0.712673) can0 127#0010000800009be3
(0.714860) can0 260#000000000000006a
(0.716193) can0 224#0000000000000008
(0.722170) can0 020#0000072b
(0.722395) can0 230#0000000100003a
(0.722626) can0 025#0fff0fff787878b1
(0.722966) can0 024#020001fd420080ee
(0.723882) can0 245#000000004c
(0.725947) can0 247#0600ff0000
(0.728260) can0 320#0000000000080033
(0.729056) can0 127#0010000800009be3
(0.734180) can0 020#0000072b
(0.734427) can0 0b4#00000000000000bc
(0.734662) can0 025#0fff0fff787878b1
(0.734911) can0 260#000000000000006a
(0.735152) can0 024#020001fd420080ee
(0.735452) can0 1c4#00000000000000cd
(0.740345) can0 224#0000000000000008
(0.745443) can0 127#0010000800009be3
(0.746312) can0 020#0000072b
(0.746537) can0 230#0000000100003a
(0.746781) can0 025#0fff0fff787878b1
(0.747008) can0 024#020001fd420080ee
(0.747448) can0 245#000000004c
(0.748508) can0 3f9#702c5602000000f8
(0.749479) can0 247#0600ff0000
(0.750460) can0 353#0000
(0.750624) can0 361#80000000
(0.752343) can0 2a4#00000000ab
(0.754604) can0 260#000000000000006a
(0.758347) can0 020#0000072b
(0.758569) can0 0b4#00000000000000bc
(0.758809) can0 025#0fff0fff787878b1
(0.759048) can0 024#020001fd420080ee
(0.759302) can0 1c4#00000000000000cd
(0.759549) can0 3b7#0000000000000008
(0.761820) can0 127#0010000800009be3
(0.764442) can0 224#0000000000000008
(0.770431) can0 020#0000072b
(0.770648) can0 230#0000000100003a
(0.770880) can0 025#0fff0fff787878b1
(0.771120) can0 024#020001fd420080ee
(0.771308) can0 245#000000004c
(0.773025) can0 247#0600ff0000
(0.774654) can0 260#000000000000006a
(0.776479) can0 320#0000000000080033
(0.778199) can0 127#0010000800009be3
(0.782589) can0 1c4#00000000000000cd
(0.782730) can0 020#0000072b
(0.782988) can0 0b4#00000000000000bc
(0.783225) can0 025#0fff0fff787878b1
(0.783961) can0 024#020001fd420080ee
(0.788584) can0 224#0000000000000008
(0.790217) can0 3a0#000000000000003a
(0.794581) can0 127#0010000800009be3
(0.794732) can0 020#0000072b
(0.794968) can0 230#0000000100003a
(0.795207) can0 025#0fff0fff787878b1
(0.795388) can0 245#000000004c
(0.795636) can0 260#000000000000006a
(0.795954) can0 024#020001fd420080ee
(0.796590) can0 247#0600ff0000
(0.800717) can0 2a4#00000000ab
(0.805696) can0 620#1000ffffb0100050
(0.806093) can0 1c4#00000000000000cd
(0.806685) can0 020#0000072b
(0.806939) can0 0b4#00000000000000bc
(0.807169) can0 025#0fff0fff787878b1
(0.807935) can0 024#020001fd420080ee
(0.810948) can0 127#0010000800009be3
(0.812827) can0 224#0000000000000008
(0.814632) can0 260#000000000000006a
(0.814959) can0 361#80000000
(0.818053) can0 245#000000004c
(0.818703) can0 020#0000072b
(0.818905) can0 230#0000000100003a
(0.819141) can0 025#0fff0fff787878b1
(0.819385) can0 4c3#0300000100000000
(0.819946) can0 024#020001fd420080ee
(0.820127) can0 247#0600ff0000
(0.824845) can0 320#0000000000080033
(0.827311) can0 127#0010000800009be3
(0.829659) can0 1c4#00000000000000cd
(0.830711) can0 020#0000072b
(0.830961) can0 0b4#00000000000000bc
(0.831196) can0 025#0fff0fff787878b1
(0.831931) can0 024#020001fd420080ee
(0.834068) can0 443#4d02002005000000
(0.834644) can0 260#000000000000006a
(0.836872) can0 224#0000000000000008
(0.841617) can0 245#000000004c
(0.842789) can0 020#0000072b
(0.843012) can0 230#0000000100003a
(0.843246) can0 025#0fff0fff787878b1
(0.843693) can0 127#0010000800009be3
(0.843939) can0 024#020001fd420080ee
(0.844124) can0 247#0600ff0000
(0.847401) can0 4dd#1e00110200000000
(0.848842) can0 2a4#00000000ab
(0.853237) can0 1c4#00000000000000cd
(0.854089) can0 389#0020000000000000
(0.854576) can0 260#000000000000006a
(0.854891) can0 020#0000072b
(0.855136) can0 0b4#00000000000000bc
(0.855386) can0 025#0fff0fff828282cf
(0.855945) can0 024#020001fd420080ee
(0.857096) can0 458#5804001200000000
(0.860094) can0 127#0010000800009be3
(0.860966) can0 224#0000000000000008
(0.865167) can0 245#000000004c
(0.866925) can0 020#0000072b
(0.867140) can0 230#0000000100003a
(0.867370) can0 025#0fff0fff787878b1
(0.867557) can0 247#0600ff0000
(0.867961) can0 024#020001fd420080ee
(0.872968) can0 320#0000000000080033
(0.874584) can0 260#000000000000006a
(0.876160) can0 6c0#e40080a000000000
(0.876479) can0 127#0010000800009be3
(0.876788) can0 1c4#00000000000000cd
(0.878916) can0 020#0000072b
(0.879163) can0 0b4#00000000000000bc
(0.879395) can0 025#0fff0fff787878b1
(0.879637) can0 3b6#8064011000020100
(0.879814) can0 361#80000000
(0.880051) can0 024#020001fd420080ee
(0.884963) can0 224#0000000000000008
(0.888710) can0 245#000000004c
(0.890772) can0 247#0600ff0000
(0.890928) can0 020#0000072b
(0.891158) can0 230#0000000100003a
(0.891398) can0 025#0fff0fff787878b1
(0.891948) can0 024#020001fd420080ee
(0.892214) can0 3a0#000000000000003a
(0.892839) can0 127#0010000800009be3
(0.894693) can0 260#000000000000006a
(0.895676) can0 63b#16003a6b0000035b
(0.896929) can0 2a4#00000000ab
(0.900330) can0 1c4#00000000000000cd
(0.903005) can0 020#0000072b
(0.903233) can0 0b4#00000000000000bc
(0.903465) can0 025#0fff0fff787878b1
(0.903718) can0 3b1#0000020a00080000
(0.903961) can0 024#020001fd420080ee
(0.909015) can0 224#0000000000000008
(0.909255) can0 127#0010000800009be3
(0.911586) can0 498#c10000004c470000
(0.911703) can0 3d3#0000
(0.912240) can0 245#000000004c
(0.913618) can0 49c#40100ca800503500
(0.914295) can0 247#0600ff0000
(0.914604) can0 260#000000000000006a
(0.914999) can0 020#0000072b
(0.915228) can0 230#0000000100003a
(0.915464) can0 025#0fff0fff787878b1
(0.915701) can0 4a7#00006c3f000500c8
(0.915949) can0 024#020001fd420080ee
(0.917726) can0 4ad#0000005d9d0003c0
(0.921025) can0 320#0000000000080033
(0.921614) can0 633#8100000000000000
(0.923906) can0 1c4#00000000000000cd
(0.925600) can0 127#0010000800009be3
(0.927051) can0 020#0000072b
(0.927270) can0 0b4#00000000000000bc
(0.927516) can0 025#0fff0fff787878b1
(0.927928) can0 024#020001fd420080ee
(0.929521) can0 394#0000
(0.930683) can0 39b#0004001000
(0.931568) can0 44d#5c02001101000000
(0.933106) can0 224#0000000000000008
(0.934596) can0 260#000000000000006a
(0.935806) can0 245#000000004c
(0.937836) can0 247#0600ff0000
(0.939067) can0 020#0000072b
(0.939294) can0 230#0000000100003a
(0.939528) can0 025#0fff0fff787878b1
(0.939771) can0 4a0#06b8000000000000
(0.940012) can0 024#020001fd420080ee
(0.940257) can0 4a1#000080808020c102
(0.940494) can0 4a2#190000ca0034b001
(0.941991) can0 127#0010000800009be3
(0.943994) can0 361#80000000
(0.945108) can0 2a4#00000000ab
(0.947426) can0 1c4#00000000000000cd
(0.951096) can0 020#0000072b
(0.951344) can0 0b4#00000000000000bc
(0.951580) can0 025#0fff0fff787878b1
(0.951925) can0 024#020001fd420080ee
(0.954651) can0 260#000000000000006a
(0.957247) can0 224#0000000000000008
(0.958357) can0 127#0010000800009be3
(0.959337) can0 245#000000004c
(0.961384) can0 247#0600ff0000
(0.963150) can0 020#0000072b
(0.963368) can0 230#0000000100003a
(0.963602) can0 025#0fff0fff787878b1
(0.963915) can0 024#020001fd420080ee
(0.969318) can0 320#0000000000080033
(0.970981) can0 1c4#00000000000000cd
(0.974558) can0 260#000000000000006a
(0.974797) can0 127#0010000800009be3
(0.975326) can0 020#0000072b
(0.975571) can0 0b4#00000000000000bc
(0.975811) can0 025#0fff0fff787878b1
(0.976050) can0 024#020001fd420080ee
(0.980100) can0 3b9#720000
(0.981407) can0 224#0000000000000008
(0.982867) can0 245#000000004c
(0.983908) can0 4ac#28006000d90003a0
(0.984951) can0 247#0600ff0000
(0.987383) can0 020#0000072b
(0.987594) can0 230#0000000100003a
(0.987831) can0 025#0fff0fff787878b1
(0.988067) can0 024#020001fd420080ee
(0.991121) can0 127#0010000800009be3
(0.991358) can0 3a0#000000000000003a
(0.993191) can0 499#d300250000000000
(0.993373) can0 2a4#00000000ab
(0.994182) can0 49a#0013250049401c78
(0.994514) can0 1c4#00000000000000cd
(0.994766) can0 260#000000000000006a
(0.997287) can0 49b#00a0222000004000
(0.998285) can0 3f9#702c5602000000f8
(0.999298) can0 49d#5f5e01509d19e698
(0.999447) can0 020#0000072b
(0.999703) can0 0b4#00000000000000bc
(0.999956) can0 024#020001fd420080ee
(1.000185) can0 025#0fff0fff787878b1
(1.000307) can0 353#0000
(1.001375) can0 4a8#0006a00000000004
(1.002384) can0 4ae#008000c001280248
(1.004450) can0 4af#0042d00000000000
(1.005480) can0 224#0000000000000008
(1.006413) can0 245#000000004c
(1.007494) can0 127#0010000800009be3
(1.008484) can0 247#0600ff0000
(1.008643) can0 361#80000000
(1.011438) can0 020#0000072b
(1.011664) can0 230#0000000100003a
(1.011895) can0 025#0fff0fff787878b1
(1.012131) can0 024#020001fd420080ee
(1.014601) can0 260#000000000000006a
(1.017527) can0 320#0000000000080033
(1.018078) can0 1c4#00000000000000cd
(1.023445) can0 020#0000072b
(1.023690) can0 0b4#00000000000000bc
(1.023924) can0 025#0fff0fff787878b1
(1.024163) can0 024#020001fd420080ee
(1.024408) can0 127#0010000800009be3
(1.029539) can0 224#0000000000000008
(1.029989) can0 245#000000004c
(1.032012) can0 247#0600ff0000
(1.034204) can0 45c#4002002101000000
(1.034561) can0 260#000000000000006a
(1.035476) can0 020#0000072b
(1.035708) can0 230#0000000100003a
(1.035935) can0 024#020001fd420080ee
(1.036176) can0 025#0fff0fff787878b1
(1.040260) can0 127#0010000800009be3
(1.041508) can0 2a4#00000000ab
(1.041757) can0 1c4#00000000000000cd
(1.047518) can0 020#0000072b
(1.047744) can0 0b4#00000000000000bc
(1.047983) can0 024#020001fd420080ee
(1.048222) can0 025#0fff0fff787878b1
(1.053530) can0 245#000000004c
(1.053768) can0 224#0000000000000008
(1.054552) can0 260#000000000000006a
(1.055547) can0 247#0600ff0000
(1.056639) can0 127#0010000800009be3
(1.059597) can0 020#0000072b
(1.059828) can0 230#0000000100003a
(1.060061) can0 024#020001fd420080ee
(1.060291) can0 025#0fff0fff787878b1
(1.060546) can0 3b7#0000000000000008
(1.061767) can0 3bc#0020000000000000
(1.065200) can0 1c4#00000000000000cd
(1.065740) can0 320#0000000000080033
(1.065978) can0 399#00000000000000
(1.071607) can0 020#0000072b
(1.071852) can0 0b4#00000000000000bc
(1.072089) can0 024#020001fd420080ee
(1.072325) can0 025#0fff0fff787878b1
(1.073005) can0 127#0010000800009be3
(1.073182) can0 361#80000000
(1.074779) can0 260#000000000000006a
(1.077061) can0 245#000000004c
(1.077760) can0 224#0000000000000008
(1.079112) can0 247#0600ff0000
(1.081187) can0 38b#00000000ac1900
(1.083279) can0 421#0000000000000000
(1.083635) can0 020#0000072b
(1.083859) can0 230#0000000100003a
(1.084103) can0 024#020001fd420080ee
(1.084334) can0 025#0fff0fff787878b1
(1.088728) can0 1c4#00000000000000cd
(1.089382) can0 127#0010000800009be3
(1.089720) can0 2a4#00000000ab
(1.090239) can0 3a0#000000000000003a
(1.094109) can0 38f#0100000000000000
(1.094549) can0 260#000000000000006a
(1.095695) can0 020#0000072b
(1.095935) can0 0b4#00000000000000bc
(1.096175) can0 025#0fff0fff787878b1
(1.096902) can0 024#020001fd420080ee
(1.097166) can0 389#0020000000000000
(1.100138) can0 458#5804001200000000
(1.100593) can0 245#000000004c
(1.101791) can0 224#0000000000000008
(1.102649) can0 247#0600ff0000
(1.105646) can0 620#1000ffffb0100050
(1.105884) can0 127#0010000800009be3
(1.107731) can0 020#0000072b
(1.107976) can0 230#0000000100003a
(1.108187) can0 025#0fff0fff787878b1
(1.108911) can0 024#020001fd420080ee
(1.112298) can0 1c4#00000000000000cd
(1.113834) can0 320#0000000000080033
(1.114528) can0 260#000000000000006a
(1.119820) can0 020#0000072b
(1.120062) can0 0b4#00000000000000bc
(1.120301) can0 025#0fff0fff828282cf
(1.120905) can0 024#020001fd420080ee
(1.122138) can0 127#0010000800009ae2
(1.124162) can0 245#000000004c
(1.125864) can0 224#0000000000000008
(1.126189) can0 247#0600ff0000
(1.131865) can0 020#0000072b
(1.132097) can0 230#0000000100003a
(1.132322) can0 025#0fff0fff787878b1
(1.132904) can0 024#020001fd420080ee
(1.134572) can0 260#000000000000006a
(1.135630) can0 440#4202001000000000
(1.135882) can0 1c4#00000000000000cd
(1.137428) can0 361#80000000
(1.137805) can0 2a4#00000000ab
(1.138523) can0 127#0010000800009be3
(1.143857) can0 020#0000072b
(1.144094) can0 0b4#00000000000000bc
(1.144330) can0 025#0fff0fff787878b1
(1.144895) can0 024#020001fd420080ee
(1.147699) can0 245#000000004c
(1.149733) can0 247#0600ff0000
(1.149981) can0 224#0000000000000008
(1.154558) can0 260#000000000000006a
(1.154905) can0 127#0010000800009be3
(1.155921) can0 020#0000072b
(1.156158) can0 230#0000000100003a
(1.156391) can0 025#0fff0fff787878b1
(1.156890) can0 024#020001fd420080ee
(1.159406) can0 1c4#00000000000000cd
(1.162027) can0 320#0000000000080033
(1.167988) can0 020#0000072b
(1.168236) can0 0b4#00000000000000bc
(1.168459) can0 025#0fff0fff787878b1
(1.168897) can0 024#020001fd420080ee
(1.171230) can0 611#21000012000184f8
(1.171463) can0 127#0010000800009be3
(1.171659) can0 245#000000004c
(1.173306) can0 247#0600ff0000
(1.174119) can0 224#0000000000000008
(1.174530) can0 260#000000000000006a
(1.176034) can0 6c0#e40080a000000000
(1.180037) can0 020#0000072b
(1.180247) can0 230#0000000100003a
(1.180482) can0 025#0fff0fff787878b1
(1.180874) can0 024#020101fd420080ef
(1.182922) can0 1c4#00000000000000cd
(1.186132) can0 2a4#00000000ab
(1.187640) can0 127#0010000800009be3
(1.189246) can0 3a0#000000000000003a
(1.191768) can0 630#1700000000000000
(1.192138) can0 020#0000072b
(1.192387) can0 0b4#00000000000000bc
(1.192623) can0 025#0fff0fff787878b1
(1.192869) can0 024#020001fd420080ee
(1.194565) can0 260#000000000000006a
(1.194751) can0 245#000000004c
(1.196810) can0 247#0600ff0000
(1.198256) can0 224#0000000000000008
(1.200371) can0 632#8000000000000000
(1.201239) can0 610#20000064c0fffd40
(1.201921) can0 361#80000000
(1.204014) can0 127#0010000800009ae2
(1.204257) can0 020#0000072b
(1.204483) can0 230#0000000100003a
(1.204719) can0 025#0fff0fff787878b1
(1.204962) can0 024#020001fd420080ee
(1.206490) can0 1c4#00000000000000cd
(1.210328) can0 320#0000000000080033
(1.211818) can0 635#8300000000000000
(1.214480) can0 260#000000000000006a
(1.216304) can0 020#0000072b
(1.216552) can0 0b4#00000000000000bc
(1.216788) can0 025#0fff0fff787878b1
(1.217028) can0 024#020001fd420080ee
(1.218316) can0 245#000000004c
(1.219237) can0 383#1100010000000000
(1.219531) can0 4dc#1d00001000000000
(1.220399) can0 127#0010000800009be3
(1.220595) can0 247#0600ff0000
(1.222425) can0 224#0000000000000008
(1.228361) can0 020#0000072b
(1.228588) can0 230#0000000100003a
(1.228824) can0 025#0fff0fff787878b1
(1.229064) can0 024#020001fd420080ee
(1.229238) can0 394#0000
(1.230026) can0 1c4#00000000000000cd
(1.231205) can0 442#4302000002000000
(1.234395) can0 2a4#00000000ab
(1.234643) can0 260#000000000000006a
(1.236777) can0 127#0010000800009be3
(1.240387) can0 020#0000072b
(1.240635) can0 0b4#00000000000000bc
(1.240871) can0 025#0fff0fff787878b1
(1.241131) can0 024#020001fd420080ee
(1.241849) can0 245#000000004c
(1.243895) can0 247#0600ff0000
(1.246540) can0 224#0000000000000008
(1.248040) can0 3f9#702c5602000000f8
(1.249987) can0 353#0000
(1.252399) can0 020#0000072b
(1.252626) can0 230#0000000100003a
(1.252862) can0 025#0fff0fff787878b1
(1.253102) can0 024#020001fd420080ee
(1.253344) can0 127#0010000800009be3
(1.253592) can0 1c4#00000000000000cd
(1.254118) can0 3bb#00000000
(1.254586) can0 260#000000000000006a
(1.258545) can0 320#0000000000080033
(1.264432) can0 020#0000072b
(1.264673) can0 0b4#00000000000000bc
(1.264914) can0 024#020001fd420080ee
(1.265149) can0 025#0fff0fff787878b1
(1.265379) can0 245#000000004c
(1.266399) can0 361#80000000
(1.267451) can0 247#0600ff0000
(1.269531) can0 127#0010000800009be3
(1.270578) can0 224#0000000000000008
(1.274519) can0 260#000000000000006a
(1.276462) can0 020#0000072b
(1.276692) can0 230#0000000100003a
(1.276924) can0 024#020001fd420080ee
(1.277162) can0 025#0fff0fff787878b1
(1.277408) can0 1c4#00000000000000cd
(1.282605) can0 2a4#00000000ab
(1.285911) can0 127#0010000800009be3
(1.288517) can0 020#0000072b
(1.288765) can0 0b4#00000000000000bc
(1.289005) can0 024#020001fd420080ee
(1.289241) can0 025#0fff0fff787878b1
(1.289427) can0 245#000000004c
(1.290987) can0 247#0600ff0000
(1.291244) can0 3a0#000000000000003a
(1.294461) can0 260#000000000000006a
(1.294711) can0 224#0000000000000008
(1.300697) can0 1c4#00000000000000cd
(1.300867) can0 020#0000072b
(1.301094) can0 230#0000000100003a
(1.301336) can0 025#0fff0fff828282cf
(1.301848) can0 024#020001fd420080ee
(1.302290) can0 127#0010000800009be3
(1.306739) can0 320#0000000000080033
(1.312492) can0 245#000000004c
(1.312731) can0 020#0000072b
(1.312979) can0 0b4#00000000000000bc
(1.313215) can0 025#0fff0fff787878b1
(1.313845) can0 024#020001fd420080ee
(1.314537) can0 260#000000000000006a
(1.314725) can0 247#0600ff0000
(1.318669) can0 127#0010000800009be3
(1.318919) can0 224#0000000000000008
(1.324237) can0 1c4#00000000000000cd
(1.324753) can0 020#0000072b
(1.324979) can0 230#0000000100003a
(1.325216) can0 025#0fff0fff787878b1
(1.325844) can0 024#020001fd420080ee
(1.330617) can0 621#1100000000000000
(1.330785) can0 2a4#00000000ab
(1.330955) can0 361#80000000
(1.334130) can0 389#0020000000000000
(1.334473) can0 260#000000000000006a
(1.335060) can0 127#0010000800009be3
(1.336041) can0 245#000000004c
(1.336803) can0 020#0000072b
(1.337052) can0 0b4#00000000000000bc
(1.337288) can0 025#0fff0fff787878b1
(1.337530) can0 458#5804001200000000
(1.337854) can0 024#020001fd420080ee
(1.338089) can0 247#0600ff0000
(1.340587) can0 622#1200000000000000
(1.342850) can0 224#0000000000000008
(1.347832) can0 1c4#00000000000000cd
(1.348891) can0 020#0000072b
(1.349118) can0 230#0000000100003a
(1.349349) can0 025#0fff0fff787878b1
(1.349598) can0 4c8#0900000000000000
(1.349855) can0 024#020001fd420080ee
(1.350580) can0 623#1900000000000000
(1.351439) can0 127#0010000800009be3
(1.354145) can0 443#4d02002005000000
(1.354495) can0 260#000000000000006a
(1.355013) can0 320#0000000000080033
(1.359575) can0 245#000000004c
(1.360960) can0 020#0000072b
(1.361207) can0 0b4#00000000000000bc
(1.361442) can0 025#0fff0fff787878b1
(1.361687) can0 3b7#0000000000000008
(1.361945) can0 024#020001fd420080ee
(1.362111) can0 247#0600ff0000
(1.365588) can0 624#1a00574949400000
(1.366192) can0 38a#0000000000
(1.367121) can0 224#0000000000000008
(1.367819) can0 127#0010000800009be3
(1.371356) can0 1c4#00000000000000cd
(1.372999) can0 020#0000072b
(1.373230) can0 230#0000000100003a
(1.373464) can0 025#0fff0fff787878b1
(1.373850) can0 024#020001fd420080ee
(1.374116) can0 2fc#8000000000000000
(1.374512) can0 260#000000000000006a
(1.375584) can0 626#1c00300000000000
(1.379023) can0 4c6#0700020000000000
(1.379193) can0 2a4#00000000ab
(1.383115) can0 245#000000004c
(1.384194) can0 127#0010000800009be3
(1.385095) can0 020#0000072b
(1.385342) can0 0b4#00000000000000bc
(1.385579) can0 025#0fff0fff787878b1
(1.385770) can0 247#0600ff0000
(1.386007) can0 024#020001fd420080ee
(1.386257) can0 638#13001f0000000000
(1.390274) can0 3a0#000000000000003a
(1.391184) can0 224#0000000000000008
(1.394120) can0 434#414000c000000000
(1.394481) can0 260#000000000000006a
(1.394925) can0 1c4#00000000000000cd
(1.395383) can0 361#80000000
(1.395629) can0 63b#16003a6b00000360
(1.397102) can0 020#0000072b
(1.397327) can0 230#0000000100003a
(1.397561) can0 025#0fff0fff787878b1
(1.397837) can0 024#020001fd420080ee
(1.400579) can0 127#0010000800009be3
(1.403249) can0 320#0000000000080033
(1.405566) can0 620#1000ffffb0100050
(1.406685) can0 245#000000004c
(1.408718) can0 247#0600ff0000
(1.409223) can0 020#0000072b
(1.409478) can0 0b4#00000000000000bc
(1.409717) can0 025#0fff0fff787878b1
(1.409954) can0 024#020001fd420080ee
(1.411313) can0 498#c10000004c470000
(1.413357) can0 49c#40100ca800503500
(1.414101) can0 435#800505ffe02f4003
(1.414473) can0 260#000000000000006a
(1.415291) can0 224#0000000000000008
(1.415528) can0 4a7#00006c3f000500c8
(1.415755) can0 63c#98004e4850130060
(1.416958) can0 127#0010000800009be3
(1.417443) can0 4ad#0000005d9d0003c0
(1.418471) can0 1c4#00000000000000cd
(1.421269) can0 020#0000072b
(1.421489) can0 230#0000000100003a
(1.421728) can0 025#0fff0fff787878b1
(1.421964) can0 024#020001fd420080ee
(1.425568) can0 63d#99004348584e4200
(1.427234) can0 2a4#00000000ab
(1.430243) can0 245#000000004c
(1.432267) can0 247#0600ff0000
(1.433342) can0 127#0010000800009be3
(1.433492) can0 020#0000072b
(1.433746) can0 0b4#00000000000000bc
(1.433993) can0 024#020001fd420080ee
(1.434233) can0 025#0fff0fff787878b1
(1.434692) can0 260#000000000000006a
(1.435569) can0 680#d800010000000000
(1.435750) can0 3d3#0000
(1.439356) can0 224#0000000000000008
(1.439594) can0 420#00000000fdfe80a7
(1.439832) can0 4a1#000080808020c102
(1.440077) can0 4a0#06b8000000000000
(1.440317) can0 4a2#190000ca0034b001
(1.442052) can0 1c4#00000000000000cd
(1.443752) can0 4a6#0000000022222200
(1.444072) can0 4c1#0100000200000000
(1.445294) can0 020#0000072b
(1.445523) can0 230#0000000100003a
(1.445761) can0 025#0fff0fff787878b1
(1.445997) can0 024#020001fd420080ee
(1.449745) can0 127#0010000800009be3
(1.451414) can0 320#0000000000080033
(1.451824) can0 44d#5c02001101000000
(1.453760) can0 245#000000004c
(1.454461) can0 260#000000000000006a
(1.455850) can0 247#0600ff0000
(1.457338) can0 020#0000072b
(1.457571) can0 0b4#00000000000000bc
(1.457802) can0 025#0fff0fff787878b1
(1.458045) can0 024#020001fd420080ee
(1.459284) can0 3a1#0000002040000000
(1.459898) can0 361#80000000
(1.463478) can0 224#0000000000000008
(1.465581) can0 1c4#00000000000000cd
(1.466086) can0 127#0010000800009be3
(1.469372) can0 020#0000072b
(1.469600) can0 230#0000000100003a
(1.469842) can0 025#0fff0fff787878b1
(1.470062) can0 024#020001fd420080ee
(1.474443) can0 260#000000000000006a
(1.475441) can0 2a4#00000000ab
(1.475903) can0 6c0#e40080a000000000
(1.477300) can0 245#000000004c
(1.479360) can0 247#0600ff0000
(1.481427) can0 020#0000072b
(1.481629) can0 0b4#00000000000000bc
(1.481883) can0 024#020001fd420080ee
(1.482129) can0 025#0fff0fff787878b1
(1.482472) can0 127#0010000800009be3
(1.483818) can0 4ac#98000000da0003a0
(1.487556) can0 224#0000000000000008
(1.489148) can0 1c4#00000000000000cd
(1.492290) can0 3a0#000000000000003a
(1.492729) can0 499#d300250000000000
(1.493415) can0 020#0000072b
(1.493639) can0 230#0000000100003a
(1.493880) can0 024#020001fd420080ee
(1.494123) can0 025#0fff0fff787878b1
(1.494347) can0 49a#0013250049401c78
(1.494592) can0 260#000000000000006a
(1.496832) can0 49b#00a0222000004000
(1.497829) can0 3f9#702c5602000000f8
(1.498285) can0 382#3939380000000000
(1.498577) can0 381#0000002000000000
(1.498878) can0 127#0010000800009be3
(1.499102) can0 49d#5f5e01509d19e698
(1.499551) can0 320#0000000000080033
(1.499782) can0 353#0000
(1.500866) can0 245#000000004c
(1.501119) can0 4a8#0006a00000000004
(1.501926) can0 4ae#008000c001280248
(1.502887) can0 247#0600ff0000
(1.503998) can0 4af#0044d00000000000
(1.505427) can0 020#0000072b
(1.505680) can0 0b4#00000000000000bc
(1.505919) can0 024#020001fd420080ee
(1.506153) can0 025#0fff0fff787878b1
(1.511600) can0 224#0000000000000008
(1.512676) can0 1c4#00000000000000cd
(1.514462) can0 260#000000000000006a
(1.515230) can0 127#0010000800009be3
(1.517521) can0 020#0000072b
(1.517730) can0 230#0000000100003a
(1.517969) can0 024#020001fd420080ee
(1.518204) can0 025#0fff0fff787878b1
(1.522286) can0 3b0#009d004c00000000
(1.523534) can0 2a4#00000000ab
(1.524405) can0 245#000000004c
(1.524564) can0 361#80000000
(1.526437) can0 247#0600ff0000
(1.529180) can0 394#0000
(1.529524) can0 020#0000072b
(1.529775) can0 0b4#00000000000000bc
(1.530014) can0 024#020001fd420080ee
(1.530244) can0 025#0fff0fff787878b1
(1.531629) can0 127#0010000800009be3
(1.534481) can0 260#000000000000006a
(1.535641) can0 224#0000000000000008
(1.536240) can0 1c4#00000000000000cd
(1.541692) can0 020#0000072b
(1.541898) can0 230#0000000100003a
(1.542137) can0 025#0fff0fff787878b1
(1.542825) can0 024#020001fd420080ee
(1.547723) can0 320#0000000000080033
(1.548006) can0 127#0010000800009be3
(1.548200) can0 245#000000004c
(1.550004) can0 247#0600ff0000
(1.553720) can0 020#0000072b
(1.553970) can0 0b4#00000000000000bc
(1.554205) can0 025#0fff0fff828282cf
(1.554453) can0 45c#4002002101000000
(1.554701) can0 260#000000000000006a
(1.554947) can0 024#020001fd420080ee
(1.559792) can0 224#0000000000000008
(1.560002) can0 1c4#00000000000000cd
(1.564375) can0 127#0010000800009be3
(1.565754) can0 020#0000072b
(1.565976) can0 230#0000000100003a
(1.566205) can0 025#0fff0fff787878b1
(1.566814) can0 024#020001fd420080ee
(1.570296) can0 380#0000000000002f00
(1.571485) can0 245#000000004c
(1.571753) can0 2a4#00000000ab
(1.573533) can0 247#0600ff0000
(1.574121) can0 389#0020000000000000
(1.574411) can0 260#000000000000006a
(1.577122) can0 458#5804001200000000
(1.577757) can0 020#0000072b
(1.578006) can0 0b4#00000000000000bc
(1.578240) can0 025#0fff0fff787878b1
(1.578811) can0 024#020001fd420080ee
(1.580743) can0 127#0010000800009be3
(1.583369) can0 1c4#00000000000000cd
(1.583867) can0 224#0000000000000008
(1.588877) can0 361#80000000
(1.589798) can0 020#0000072b
(1.590023) can0 230#0000000100003a
(1.590253) can0 025#0fff0fff787878b1
(1.590806) can0 024#020001fd420080ee
(1.591307) can0 3a0#000000000000003a
(1.594416) can0 260#000000000000006a
(1.595038) can0 245#000000004c
(1.595900) can0 320#0000000000080033
(1.597126) can0 127#0010000800009be3
(1.597314) can0 247#0600ff0000
(1.601858) can0 020#0000072b
(1.602092) can0 0b4#00000000000000bc
(1.602327) can0 025#0fff0fff787878b1
(1.602811) can0 024#020001fd420080ee
(1.606906) can0 1c4#00000000000000cd
(1.607986) can0 224#0000000000000008
(1.613512) can0 127#0010000800009be3
(1.613884) can0 020#0000072b
(1.614113) can0 230#0000000100003a
(1.614344) can0 025#0fff0fff787878b1
(1.614593) can0 260#000000000000006a
(1.614832) can0 024#020001fd420080ee
(1.618581) can0 245#000000004c
(1.619973) can0 2a4#00000000ab
(1.620612) can0 247#0600ff0000
(1.625912) can0 020#0000072b
(1.626154) can0 0b4#00000000000000bc
(1.626389) can0 025#0fff0fff787878b1
(1.626800) can0 024#020001fd420080ee
(1.629882) can0 127#0010000800009be3
(1.630478) can0 1c4#00000000000000cd
(1.632074) can0 224#0000000000000008
(1.634465) can0 260#000000000000006a
(1.637994) can0 020#0000072b
(1.638208) can0 230#0000000100003a
(1.638441) can0 025#0fff0fff787878b1
(1.638795) can0 024#020001fd420080ee
(1.642118) can0 245#000000004c
(1.644110) can0 320#0000000000080033
(1.644277) can0 247#0600ff0000
(1.646268) can0 127#0010000800009be3
(1.650070) can0 020#0000072b
(1.650304) can0 0b4#00000000000000bc
(1.650539) can0 025#0fff0fff787878b1
(1.650787) can0 024#020001fd420080ee
(1.653358) can0 361#80000000
(1.653982) can0 1c4#00000000000000cd
(1.654261) can0 6f9#0000000000000000
(1.654497) can0 260#000000000000006a
(1.655531) can0 440#4202001000000000
(1.656137) can0 224#0000000000000008
(1.657120) can0 38e#2040000000000000
(1.660124) can0 387#000000003f3f3f3f
(1.660816) can0 423#00
(1.662136) can0 020#0000072b
(1.662350) can0 230#0000000100003a
(1.662586) can0 025#0fff0fff787878b1
(1.662835) can0 024#020001fd420080ee
(1.663084) can0 127#0010000800009be3
(1.663319) can0 3b7#0000000000000008
(1.665656) can0 245#000000004c
(1.667747) can0 247#0600ff0000
(1.668084) can0 2a4#00000000ab
(1.674147) can0 020#0000072b
(1.674375) can0 0b4#00000000000000bc
(1.674612) can0 025#0fff0fff787878b1
(1.674852) can0 024#020001fd420080ee
(1.675101) can0 260#000000000000006a
(1.677542) can0 1c4#00000000000000cd
(1.679004) can0 127#0010000800009be3
(1.680191) can0 224#0000000000000008
(1.686168) can0 020#0000072b
(1.686385) can0 230#0000000100003a
(1.686620) can0 025#0fff0fff787878b1
(1.686860) can0 024#020001fd420080ee
(1.689202) can0 245#000000004c
(1.690285) can0 3a0#000000000000003b
(1.691231) can0 247#0600ff0000
(1.692186) can0 320#0000000000080033
(1.694372) can0 260#000000000000006a
(1.695373) can0 127#0010000800009be3
(1.698206) can0 020#0000072b
(1.698445) can0 0b4#00000000000000bc
(1.698681) can0 025#0fff0fff787878b1
(1.698922) can0 024#020001fd420080ee
(1.701089) can0 1c4#00000000000000cd
(1.701325) can0 610#20000064c0fffd40
(1.704314) can0 224#0000000000000008
(1.705506) can0 620#1000ffffb0100050
(1.710240) can0 020#0000072b
(1.710454) can0 230#0000000100003a
(1.710695) can0 025#0fff0fff787878b1
(1.710928) can0 024#020001fd420080ee
(1.711808) can0 127#0010000800009be3
(1.712756) can0 245#000000004c
(1.714406) can0 260#000000000000006a
(1.714783) can0 247#0600ff0000
(1.716252) can0 2a4#00000000ab
(1.717862) can0 361#80000000
(1.722251) can0 020#0000072b
(1.722488) can0 0b4#00000000000000bc
(1.722718) can0 025#0fff0fff787878b1
(1.722959) can0 024#020001fd420080ee
(1.724675) can0 1c4#00000000000000cd
(1.728157) can0 127#0010000800009be3
(1.728406) can0 224#0000000000000008
(1.731201) can0 613#2800000000000000
(1.734273) can0 020#0000072b
(1.734493) can0 230#0000000100003a
(1.734728) can0 025#0fff0fff787878b1
(1.734968) can0 024#020001fd420080ee
(1.735218) can0 260#000000000000006a
(1.736301) can0 245#000000004c
(1.738363) can0 247#0600ff0000
(1.740435) can0 320#0000000000080033
(1.744534) can0 127#0010000800009ae2
(1.746326) can0 020#0000072b
(1.746564) can0 0b4#00000000000000bc
(1.746798) can0 024#020001fd420080ee
(1.747041) can0 025#0fff0fff787878b1
(1.747605) can0 3f9#702c5602000000f8
(1.748200) can0 1c4#00000000000000cd
(1.749565) can0 353#0000
(1.751212) can0 442#4302000002000000
(1.752450) can0 224#0000000000000008
(1.752690) can0 4c3#0300000100000000
(1.754403) can0 260#000000000000006a
(1.758361) can0 020#0000072b
(1.758581) can0 230#0000000100003a
(1.758821) can0 024#020001fd420080ee
(1.759056) can0 025#0fff0fff787878b1
(1.759875) can0 245#000000004c
(1.760909) can0 127#0010000800009ae2
(1.761883) can0 247#0600ff0000
(1.764425) can0 2a4#00000000ab
(1.770461) can0 020#0000072b
(1.770704) can0 0b4#00000000000000bc
(1.770939) can0 024#020001fd420080ee
(1.771176) can0 025#0fff0fff787878b1
(1.771782) can0 1c4#00000000000000cd
(1.774411) can0 260#000000000000006a
(1.775745) can0 6c0#e40080a000000000
(1.776575) can0 224#0000000000000008
(1.777278) can0 127#0010000800009ae2
(1.782353) can0 361#80000000
(1.782529) can0 020#0000072b
(1.782755) can0 230#0000000100003a
(1.782996) can0 025#0fff0fff787878b1
(1.783399) can0 245#000000004c
(1.783775) can0 024#020001fd420080ee
(1.785434) can0 247#0600ff0000
(1.788594) can0 320#0000000000080033
(1.789317) can0 3a0#000000000000003a
(1.793668) can0 127#0010000800009ae2
(1.794442) can0 260#000000000000006a
(1.794661) can0 020#0000072b
(1.794902) can0 0b4#00000000000000bc
(1.795146) can0 025#0fff0fff828282cf
(1.795393) can0 1c4#00000000000000cd
(1.795780) can0 024#020001fd420080ee
(1.800762) can0 224#0000000000000008
(1.806703) can0 020#0000072b
(1.806923) can0 230#0000000100003a
(1.807158) can0 025#0fff0fff787878b1
(1.807333) can0 245#000000004c
(1.807770) can0 024#020001fd420080ee
(1.808970) can0 247#0600ff0000
(1.810054) can0 127#0010000800009ae2
(1.812772) can0 2a4#00000000ab
(1.814136) can0 389#0020000000000000
(1.814393) can0 260#000000000000006a
(1.817132) can0 458#5804001200000000
(1.818756) can0 020#0000072b
(1.819001) can0 0b4#00000000000000bc
(1.819234) can0 025#0fff0fff787878b1
(1.819497) can0 1c4#00000000000000cd
(1.819770) can0 024#020001fd420080ee
(1.824901) can0 224#0000000000000008
(1.826421) can0 127#0010000800009ae2
(1.829331) can0 394#0000
(1.830465) can0 245#000000004c
(1.830743) can0 020#0000072b
(1.830973) can0 230#0000000100003a
(1.831212) can0 025#0fff0fff787878b1
(1.831767) can0 024#020001fd420080ee
(1.832527) can0 247#0600ff0000
(1.834364) can0 260#000000000000006a
(1.836916) can0 320#0000000000080033
(1.842415) can0 1c4#00000000000000cd
(1.842777) can0 127#0010000800009ae2
(1.842951) can0 020#0000072b
(1.843195) can0 0b4#00000000000000bc
(1.843432) can0 025#0fff0fff787878b1
(1.843744) can0 024#020001fd420080ee
(1.846803) can0 361#80000000
(1.848933) can0 224#0000000000000008
(1.853985) can0 245#000000004c
(1.854412) can0 260#000000000000006a
(1.854886) can0 020#0000072b
(1.855112) can0 230#0000000100003a
(1.855349) can0 025#0fff0fff787878b1
(1.855747) can0 024#020001fd420080ee
(1.856047) can0 247#0600ff0000
(1.857179) can0 4dd#1e00110200000000
(1.859156) can0 127#0010000800009ae2
(1.860920) can0 2a4#00000000ab
(1.865962) can0 1c4#00000000000000cd
(1.866881) can0 020#0000072b
(1.867129) can0 0b4#00000000000000bc
(1.867365) can0 025#0fff0fff787878b1
(1.867745) can0 024#020001fd420080ee
(1.872976) can0 224#0000000000000008
(1.874108) can0 443#4d02002005000000
(1.874356) can0 260#000000000000006a
(1.875534) can0 127#0010000800009ae2
(1.877551) can0 245#000000004c
(1.878948) can0 020#0000072b
(1.879170) can0 230#0000000100003a
(1.879406) can0 025#0fff0fff787878b1
(1.879595) can0 247#0600ff0000
(1.879835) can0 024#020001fd420080ee
(1.880073) can0 3b6#8064011000020100
(1.885027) can0 320#0000000000080033
(1.889499) can0 1c4#00000000000000cd
(1.890987) can0 020#0000072b
(1.891236) can0 0b4#00000000000000bc
(1.891472) can0 025#0fff0fff787878b1
(1.891720) can0 3a0#000000000000003a
(1.891962) can0 024#020001fd420080ee
(1.892202) can0 127#0010000800009be3
(1.894382) can0 260#000000000000006a
(1.895428) can0 63b#16003a6b00000365
(1.897025) can0 224#0000000000000008
(1.901093) can0 245#000000004c
(1.903023) can0 020#0000072b
(1.903250) can0 230#0000000100003a
(1.903487) can0 025#0fff0fff787878b1
(1.903674) can0 247#0600ff0000
(1.903914) can0 024#020001fd420080ee
(1.904161) can0 3b1#0000020a00080000
(1.908291) can0 127#0010000800009ae2
(1.909009) can0 2a4#00000000ab
(1.911020) can0 498#c10000004c470000
(1.911294) can0 361#80000000
(1.913054) can0 49c#40100ca800503500
(1.913302) can0 1c4#00000000000000cd
(1.914380) can0 260#000000000000006a
(1.915102) can0 4a7#00006c3f000500c8
(1.915272) can0 020#0000072b
(1.915521) can0 0b4#00000000000000bc
(1.915761) can0 024#020001fd420080ee
(1.915997) can0 025#0fff0fff787878b1
(1.917153) can0 4ad#0000005d9d0003c0
(1.921092) can0 224#0000000000000008
(1.922084) can0 633#8100000000000000
(1.924675) can0 127#0010000800009be3
(1.924869) can0 245#000000004c
(1.926689) can0 247#0600ff0000
(1.927093) can0 020#0000072b
(1.927320) can0 230#0000000100003a
(1.927556) can0 025#0fff0fff787878b1
(1.927796) can0 024#020001fd420080ee
(1.930783) can0 39b#0004001000
(1.933185) can0 320#0000000000080033
(1.934317) can0 260#000000000000006a
(1.936605) can0 1c4#00000000000000cd
(1.939139) can0 020#0000072b
(1.939388) can0 0b4#00000000000000bc
(1.939625) can0 025#0fff0fff787878b1
(1.939864) can0 024#020001fd420080ee
(1.940110) can0 4a0#06b8000000000000
(1.940353) can0 4a1#000080808020c102
(1.940591) can0 4a2#190000ca0034b001
(1.941053) can0 127#0010000800009be3
(1.945305) can0 224#0000000000000008
(1.948166) can0 245#000000004c
(1.950222) can0 247#0600ff0000
(1.951214) can0 020#0000072b
(1.951440) can0 230#0000000100003a
(1.951677) can0 025#0fff0fff787878b1
(1.951917) can0 024#020001fd420080ee
(1.954313) can0 260#000000000000006a
(1.957343) can0 2a4#00000000ab
(1.957585) can0 127#0010000800009be3
(1.960171) can0 1c4#00000000000000cd
(1.960305) can0 3d3#0000
(1.963350) can0 020#0000072b
(1.963598) can0 0b4#00000000000000bc
(1.963839) can0 024#020001fd420080ee
(1.964074) can0 025#0fff0fff787878b1
(1.964324) can0 3b7#0000000000000008
(1.969419) can0 224#0000000000000008
(1.971728) can0 245#000000004c
(1.972090) can0 44d#5c02001101000000
(1.973806) can0 127#0010000800009ae2
(1.974002) can0 247#0600ff0000
(1.974568) can0 260#000000000000006a
(1.975484) can0 020#0000072b
(1.975711) can0 230#0000000100003a
(1.975881) can0 361#80000000
(1.976123) can0 025#0fff0fff828282cf
(1.976731) can0 024#020001fd420080ee
(1.981509) can0 320#0000000000080033
(1.983710) can0 1c4#00000000000000cd
(1.983953) can0 4ac#18004000c100d3a0
(1.987520) can0 020#0000072b
(1.987768) can0 0b4#00000000000000bc
(1.988004) can0 025#0fff0fff787878b1
(1.988757) can0 024#020001fd420080ee
(1.990202) can0 127#0010000800009be3
(1.990446) can0 3a0#000000000000003a
(1.992301) can0 499#d300250000000000
(1.993265) can0 49a#0013250049401c78
(1.993623) can0 224#0000000000000008
(1.994378) can0 260#000000000000006a
(1.995276) can0 245#000000004c
(1.996366) can0 49b#00a0222000004000
(1.997318) can0 247#0600ff0000
(1.997569) can0 3f9#702c5602000000f8
(1.998382) can0 49d#5f5e01509d19e698
(1.999321) can0 353#0000
(1.999669) can0 020#0000072b
(1.999900) can0 230#0000000100003a
(2.000138) can0 025#0fff0fff787878b1
(2.000465) can0 4a8#0006a00000000004
(2.000739) can0 024#020001fd420080ee
(2.001460) can0 4ae#008000c001280248
(2.003528) can0 4af#0044d00000000000
(2.004101) can0 3b9#720000
(2.005458) can0 620#1000ffffb0100050
(2.005769) can0 2a4#00000000ab
(2.006577) can0 127#0010000800009ae2
(2.007291) can0 1c4#00000000000000cd
(2.011708) can0 020#0000072b
(2.011960) can0 0b4#00000000000000bc
(2.012193) can0 025#0fff0fff787878b1
(2.012740) can0 024#020001fd420080ee
(2.014357) can0 260#000000000000006a
(2.017886) can0 224#0000000000000008
(2.018809) can0 245#000000004c
(2.020882) can0 247#0600ff0000
(2.022961) can0 127#0010000800009ae2
(2.023810) can0 020#0000072b
(2.024025) can0 230#0000000100003a
(2.024262) can0 025#0fff0fff787878b1
(2.024732) can0 024#020001fd420080ee
(2.029887) can0 320#0000000000080033
(2.030829) can0 1c4#00000000000000cd
(2.034374) can0 260#000000000000006a
(2.035811) can0 020#0000072b
(2.036058) can0 0b4#00000000000000bc
(2.036293) can0 025#0fff0fff787878b1
(2.036729) can0 024#020001fd420080ee
(2.039336) can0 127#0010000800009be3
(2.040296) can0 361#80000000
(2.041906) can0 224#0000000000000008
(2.042348) can0 245#000000004c
(2.044411) can0 247#0600ff0000
(2.047818) can0 020#0000072b
(2.048047) can0 230#0000000100003a
(2.048282) can0 025#0fff0fff787878b1
(2.048727) can0 024#020001fd420080ee
(2.053892) can0 2a4#00000000ab
(2.054143) can0 389#0020000000000000
(2.054388) can0 260#000000000000006a
(2.054635) can0 1c4#00000000000000cd
(2.055719) can0 127#0010000800009be3
(2.057132) can0 458#5804001200000000
(2.059888) can0 020#0000072b
(2.060138) can0 0b4#00000000000000bc
(2.060371) can0 025#0fff0fff787878b1
(2.060728) can0 024#020001fd420080ee
(2.065959) can0 224#0000000000000008
(2.066129) can0 245#000000004c
(2.067956) can0 247#0600ff0000
(2.071935) can0 020#0000072b
(2.072161) can0 127#0010000800009ae2
(2.072397) can0 025#0fff0fff787878b1
(2.072624) can0 230#0000000100003a
(2.072863) can0 024#020001fd420080ee
(2.073742) can0 45c#4002002101000000
(2.074323) can0 260#000000000000006a
(2.075610) can0 6c0#e40080a000000000
(2.077947) can0 1c4#00000000000000cd
(2.078192) can0 320#0000000000080033
(2.081312) can0 38b#000000002c1900
(2.083380) can0 421#0000000000000000
(2.083954) can0 020#0000072b
(2.084200) can0 0b4#00000000000000bc
(2.084433) can0 025#0fff0fff787878b1
(2.084716) can0 024#020001fd420080ee
(2.085424) can0 3bc#0020000000000000
(2.088494) can0 127#0010000800009ae2
(2.089463) can0 245#000000004c
(2.089693) can0 399#00000000000000
(2.090011) can0 224#0000000000000008
(2.091499) can0 247#0600ff0000
(2.092350) can0 3a0#000000000000003a
(2.094419) can0 260#000000000000006a
(2.095989) can0 020#0000072b
(2.096204) can0 230#0000000100003a
(2.096436) can0 025#0fff0fff787878b1
(2.096713) can0 024#020001fd420080ee
(2.101518) can0 1c4#00000000000000cd
(2.101961) can0 2a4#00000000ab
(2.104860) can0 127#0010000800009ae2
(2.105018) can0 361#80000000
(2.108007) can0 020#0000072b
(2.108244) can0 0b4#00000000000000bc
(2.108482) can0 025#0fff0fff787878b1
(2.108724) can0 024#020001fd41ff80ec
(2.113008) can0 245#000000004c
(2.114051) can0 224#0000000000000008
(2.114296) can0 260#000000000000006a
(2.114527) can0 38f#0100000000000000
(2.115113) can0 247#0600ff0000
(2.120049) can0 020#0000072b
(2.120236) can0 230#0000000100003a
(2.120471) can0 025#0fff0fff787878b1
(2.120716) can0 024#020001fd420080ee
(2.121214) can0 127#0010000800009ae2
(2.125034) can0 1c4#00000000000000cd
(2.126111) can0 320#0000000000080033
(2.129020) can0 394#0000
(2.132046) can0 020#0000072b
(2.132275) can0 0b4#00000000000000bc
(2.132510) can0 025#0fff0fff787878b1
(2.132750) can0 024#020001fd420080ee
(2.134306) can0 260#000000000000006a
(2.136523) can0 245#000000004c
(2.137592) can0 127#0010000800009ae2
(2.138123) can0 224#0000000000000008
(2.138584) can0 247#0600ff0000
(2.144096) can0 020#0000072b
(2.144309) can0 230#0000000100003a
(2.144546) can0 025#0fff0fff787878b1
(2.144786) can0 024#020001fd420080ee
(2.148606) can0 1c4#00000000000000cd
(2.150196) can0 2a4#00000000ab
(2.153968) can0 127#0010000800009ae2
(2.154316) can0 260#000000000000006a
(2.156181) can0 020#0000072b
(2.156428) can0 0b4#00000000000000bc
(2.156667) can0 025#0fff0fff787878b1
(2.156906) can0 024#020001fd420080ee
(2.160079) can0 245#000000004c
(2.162105) can0 247#0600ff0000
(2.162360) can0 224#0000000000000008
(2.168387) can0 020#0000072b
(2.168588) can0 230#0000000100003a
(2.168830) can0 024#020001fd420080ee
(2.169075) can0 025#0fff0fff787878b1
(2.169274) can0 361#80000000
(2.170367) can0 127#0010000800009ae2
(2.171170) can0 611#21000012000184f8
(2.172151) can0 1c4#00000000000000cd
(2.174311) can0 260#000000000000006a
(2.174560) can0 320#0000000000080033
(2.175388) can0 440#4202001000000000
(2.180471) can0 020#0000072b
(2.180710) can0 0b4#00000000000000bc
(2.180957) can0 025#0fff0fff787878b1
(2.181718) can0 024#020001fd420080ee
(2.183636) can0 245#000000004c
(2.185668) can0 247#0600ff0000
(2.186614) can0 224#0000000000000008
(2.186825) can0 127#0010000800009ae2
(2.188357) can0 3a0#000000000000003a
(2.192263) can0 630#1700000000000000
(2.192505) can0 020#0000072b
(2.192741) can0 230#0000000100003a
(2.192986) can0 025#0fff0fff787878b1
(2.193702) can0 024#020001fd420080ee
(2.194284) can0 260#000000000000006a
(2.195715) can0 1c4#00000000000000cd
(2.198700) can0 2a4#00000000ab
(2.201157) can0 610#20000064c0fffd40
(2.201605) can0 632#8000000000000000
(2.203127) can0 127#0010000800009ae2
(2.204651) can0 020#0000072b
(2.204902) can0 0b4#00000000000000bc
(2.205144) can0 025#0fff0fff828282cf
(2.205709) can0 024#020001fd420080ee
(2.207163) can0 245#000000004c
(2.209244) can0 247#0600ff0000
(2.210812) can0 224#0000000000000008
(2.212268) can0 635#8300000000000000
(2.214151) can0 2fc#8000000000000000
(2.214394) can0 260#000000000000006a
(2.216723) can0 020#0000072b
(2.216945) can0 230#0000000100003a
(2.217175) can0 025#0fff0fff787878b1
(2.217696) can0 024#020001fd420080ee
(2.218370) can0 4dc#1d00001000000000
(2.219249) can0 1c4#00000000000000cd
(2.219504) can0 127#0010000800009ae2
(2.222836) can0 320#0000000000080033
(2.228763) can0 020#0000072b
(2.229007) can0 0b4#00000000000000bc
(2.229241) can0 025#0fff0fff787878b1
(2.229691) can0 024#020001fd420080ee
(2.230720) can0 245#000000004c
(2.232778) can0 247#0600ff0000
(2.233782) can0 361#80000000
(2.234141) can0 434#414000c000000000
(2.234391) can0 260#000000000000006a
(2.234879) can0 224#0000000000000008
(2.235899) can0 127#0010000800009ae2
(2.240885) can0 020#0000072b
(2.241083) can0 230#0000000100003a
(2.241320) can0 025#0fff0fff787878b1
(2.241691) can0 024#020001fd420080ee
(2.242829) can0 1c4#00000000000000cd
(2.243581) can0 4a6#0000000022222200
(2.246847) can0 2a4#00000000ab
(2.247152) can0 3f9#702c5602000000f8
(2.249104) can0 353#0000
(2.252268) can0 127#0010000800009ae2
(2.252919) can0 020#0000072b
(2.253188) can0 0b4#00000000000000bc
(2.253413) can0 025#0fff0fff787878b1
(2.253683) can0 024#020001fd420080ee
(2.254130) can0 435#800505ffe02f4003
(2.254311) can0 245#000000004c
(2.254564) can0 260#000000000000006a
(2.256308) can0 247#0600ff0000
(2.258932) can0 224#0000000000000008
(2.264938) can0 020#0000072b
(2.265142) can0 230#0000000100003a
(2.265371) can0 025#0fff0fff787878b1
(2.265624) can0 3b7#0000000000000008
(2.265862) can0 024#020001fd420080ee
(2.266354) can0 1c4#00000000000000cd
(2.268646) can0 127#0010000800009ae2
(2.270971) can0 320#0000000000080033
(2.271203) can0 442#4302000002000000
(2.274322) can0 260#000000000000006a
(2.276961) can0 020#0000072b
(2.277199) can0 0b4#00000000000000bc
(2.277438) can0 025#0fff0fff787878b1
(2.277679) can0 024#020001fd420080ee
(2.277861) can0 245#000000004c
(2.278047) can0 3bb#00000000
(2.279854) can0 247#0600ff0000
(2.283049) can0 224#0000000000000008
(2.285020) can0 127#0010000800009ae2
(2.289018) can0 020#0000072b
(2.289214) can0 230#0000000100003a
(2.289462) can0 025#0fff0fff787878b1
(2.289700) can0 024#020001fd420080ee
(2.289952) can0 1c4#00000000000000cd
(2.290362) can0 3a0#000000000000003a
(2.294150) can0 389#0020000000000000
(2.294394) can0 260#000000000000006a
(2.295092) can0 2a4#00000000ab
(2.297147) can0 458#5804001200000000
(2.298267) can0 361#80000000
(2.301052) can0 020#0000072b
(2.301281) can0 0b4#00000000000000bc
(2.301522) can0 025#0fff0fff787878b1
(2.301757) can0 024#020001fd420080ee
(2.302001) can0 127#0010000800009ae2
(2.302194) can0 245#000000004c
(2.303412) can0 247#0600ff0000
(2.305364) can0 620#1000ffffb0100050
(2.307174) can0 224#0000000000000008
(2.313079) can0 020#0000072b
(2.313279) can0 230#0000000100003a
(2.313519) can0 025#0fff0fff787878b1
(2.313764) can0 024#020001fd420080ee
(2.314017) can0 1c4#00000000000000cd
(2.314259) can0 260#000000000000006a
(2.317785) can0 127#0010000800009be3
(2.319232) can0 320#0000000000080033
(2.324895) can0 245#000000004c
(2.325094) can0 020#0000072b
(2.325340) can0 0b4#00000000000000bc
(2.325579) can0 025#0fff0fff787878b1
(2.325824) can0 024#020001fd420080ee
(2.326966) can0 247#0600ff0000
(2.329165) can0 4c8#0900000000000000
(2.330350) can0 621#1100000000000000
(2.331251) can0 224#0000000000000008
(2.334160) can0 127#0010000800009be3
(2.334398) can0 260#000000000000006a
(2.337046) can0 1c4#00000000000000cd
(2.337200) can0 020#0000072b
(2.337434) can0 230#0000000100003a
(2.337671) can0 025#0fff0fff787878b1
(2.337908) can0 024#020001fd420080ee
(2.338811) can0 4c6#0700020000000000
(2.340363) can0 622#1200000000000000
(2.343276) can0 2a4#00000000ab
(2.348463) can0 245#000000004c
(2.349347) can0 020#0000072b
(2.349597) can0 0b4#00000000000000bc
(2.349841) can0 024#020001fd420080ee
(2.350084) can0 025#0fff0fff787878b1
(2.350347) can0 623#1900000000000000
(2.350592) can0 127#0010000800009ae2
(2.350787) can0 247#0600ff0000
(2.354307) can0 260#000000000000006a
(2.354542) can0 4c1#0100000200000000
(2.355459) can0 224#0000000000000008
(2.360588) can0 1c4#00000000000000cd
(2.361396) can0 020#0000072b
(2.361623) can0 230#0000000100003a
(2.361858) can0 024#020001fd420080ee
(2.362102) can0 025#0fff0fff787878b1
(2.362740) can0 361#80000000
(2.365345) can0 624#1a00574949400000
(2.366904) can0 127#0010000800009ae2
(2.367501) can0 320#0000000000080033
(2.371994) can0 245#000000004c
(2.373469) can0 020#0000072b
(2.373719) can0 0b4#00000000000000bc
(2.373956) can0 025#0fff0fff787878b1
(2.374133) can0 247#0600ff0000
(2.374384) can0 260#000000000000006a
(2.374665) can0 024#020001fd420080ee
(2.375341) can0 626#1c00300000000000
(2.375594) can0 6c0#e40080a000000000
(2.379731) can0 224#0000000000000008
(2.383290) can0 127#0010000800009ae2
(2.384132) can0 1c4#00000000000000cd
(2.385366) can0 638#13001f0000000000
(2.385537) can0 020#0000072b
(2.385776) can0 230#0000000100003a
(2.386026) can0 025#0fff0fff828282cf
(2.386667) can0 024#020001fd420080ee
(2.389387) can0 3a0#000000000000003a
(2.391700) can0 2a4#00000000ab
(2.394156) can0 443#4d02002005000000
(2.394390) can0 260#000000000000006a
(2.395340) can0 63b#16003a6b0000036a
(2.395509) can0 245#000000004c
(2.397595) can0 247#0600ff0000
(2.397748) can0 020#0000072b
(2.398006) can0 0b4#00000000000000bc
(2.398254) can0 025#0fff0fff787878b1
(2.398663) can0 024#020001fd420080ee
(2.399675) can0 127#0010000800009ae2
(2.403827) can0 224#0000000000000008
(2.407680) can0 1c4#00000000000000cd
(2.409827) can0 020#0000072b
(2.410027) can0 230#0000000100003a
(2.410272) can0 025#0fff0fff787878b1
(2.410504) can0 63c#98004e4850130060
(2.410747) can0 024#020001fd420080ee
(2.410994) can0 498#c10000004c470000
(2.412792) can0 49c#40100ca800503500
(2.414226) can0 260#000000000000006a
(2.414841) can0 4a7#00006c3f000500c8
(2.415832) can0 320#0000000000080033
(2.416077) can0 127#0010000800009ae2
(2.416905) can0 4ad#0000005d9d0003c0
(2.419072) can0 245#000000004c
(2.421132) can0 247#0600ff0000
(2.421814) can0 020#0000072b
(2.422060) can0 0b4#00000000000000bc
(2.422299) can0 025#0fff0fff787878b1
(2.422663) can0 024#020001fd420080ee
(2.425327) can0 63d#99004348584e4200
(2.427241) can0 361#80000000
(2.427876) can0 224#0000000000000008
(2.429160) can0 394#0000
(2.431243) can0 1c4#00000000000000cd
(2.432417) can0 127#0010000800009ae2
(2.433879) can0 020#0000072b
(2.434076) can0 230#0000000100003a
(2.434319) can0 025#0fff0fff787878b1
(2.434572) can0 260#000000000000006a
(2.434812) can0 024#020001fd420080ee
(2.435331) can0 680#d800010000000000
(2.439836) can0 2a4#00000000ab
(2.440076) can0 4a0#06b8000000000000
(2.440316) can0 4a1#000080808020c102
(2.440550) can0 4a2#190000ca0034b001
(2.442638) can0 245#000000004c
(2.444666) can0 247#0600ff0000
(2.445874) can0 020#0000072b
(2.446130) can0 0b4#00000000000000bc
(2.446367) can0 025#0fff0fff787878b1
(2.446604) can0 420#00000000fdfe80a7
(2.446846) can0 024#020001fd420080ee
(2.448846) can0 127#0010000800009ae2
(2.451963) can0 224#0000000000000008
(2.454475) can0 260#000000000000006a
(2.454773) can0 1c4#00000000000000cd
(2.457895) can0 020#0000072b
(2.458116) can0 230#0000000100003a
(2.458349) can0 025#0fff0fff787878b1
(2.458640) can0 024#020001fd420080ee
(2.461406) can0 3a1#0000002040000000
(2.463983) can0 320#0000000000080033
(2.465174) can0 127#0010000800009ae2
(2.466161) can0 245#000000004c
(2.468211) can0 247#0600ff0000
(2.469916) can0 020#0000072b
(2.470153) can0 0b4#00000000000000bc
(2.470388) can0 025#0fff0fff787878b1
(2.470642) can0 024#020001fd420080ee
(2.474247) can0 260#000000000000006a
(2.476040) can0 224#0000000000000008
(2.478351) can0 1c4#00000000000000cd
(2.481564) can0 127#0010000800009ae2
(2.481967) can0 020#0000072b
(2.482193) can0 230#0000000100003a
(2.482445) can0 025#0fff0fff787878b1
(2.482672) can0 024#020001fd420080ee
(2.483632) can0 4ac#28006000c200b3a0
(2.484361) can0 3d3#0000
(2.488071) can0 2a4#00000000ab
(2.489707) can0 245#000000004c
(2.491404) can0 3a0#000000000000003a
(2.491764) can0 247#0600ff0000
(2.492019) can0 499#d300250000000000
(2.492193) can0 361#80000000
(2.492433) can0 44d#5c02001101000000
(2.492805) can0 49a#0013250049401c78
(2.494013) can0 020#0000072b
(2.494254) can0 0b4#00000000000000bc
(2.494483) can0 025#0fff0fff787878b1
(2.494722) can0 024#020001fd420080ee
(2.494987) can0 260#000000000000006a
(2.495905) can0 49b#00a0222000004000
(2.496920) can0 3f9#702c5602000000f8
(2.497944) can0 127#0010000800009be3
(2.498179) can0 49d#5f5e01509d19e698
(2.498873) can0 353#0000
(2.500013) can0 4a8#0006a00000000004
(2.500268) can0 224#0000000000000008
(2.501006) can0 4ae#008000c001280248
(2.501896) can0 1c4#00000000000000cd
(2.503068) can0 4af#0044d00000000000
(2.506048) can0 020#0000072b
(2.506262) can0 230#0000000100003a
(2.506497) can0 025#0fff0fff787878b1
(2.506732) can0 024#020001fd420080ee
(2.512204) can0 320#0000000000080033
(2.513243) can0 245#000000004c
(2.514253) can0 260#000000000000006a
(2.514493) can0 127#0010000800009be3
(2.515297) can0 247#0600ff0000
(2.518079) can0 020#0000072b
(2.518313) can0 0b4#00000000000000bc
(2.518548) can0 025#0fff0fff787878b1
(2.518788) can0 024#020001fd420080ee
(2.518982) can0 38a#0000000000
(2.521371) can0 3b0#009d004c00000000
(2.524185) can0 224#0000000000000008
(2.525433) can0 1c4#00000000000000cd
(2.530096) can0 020#0000072b
(2.530322) can0 230#0000000100003a
(2.530558) can0 025#0fff0fff787878b1
(2.530798) can0 024#020001fd420080ee
(2.531041) can0 127#0010000800009be3
(2.534135) can0 389#0020000000000000
(2.534383) can0 260#000000000000006a
(2.536169) can0 2a4#00000000ab
(2.536789) can0 245#000000004c
(2.537133) can0 458#5804001200000000
(2.538813) can0 247#0600ff0000
(2.542253) can0 020#0000072b
(2.542501) can0 0b4#00000000000000bc
(2.542741) can0 024#020001fd420080ee
(2.542980) can0 025#0fff0fff787878b1
(2.547083) can0 127#0010000800009ae2
(2.548313) can0 224#0000000000000008
(2.548974) can0 1c4#00000000000000cd
(2.554175) can0 260#000000000000006a
(2.554342) can0 020#0000072b
(2.554569) can0 230#0000000100003a
(2.554810) can0 024#020001fd420080ee
(2.555051) can0 025#0fff0fff828282cf
(2.556209) can0 361#80000000
(2.560319) can0 245#000000004c
(2.560568) can0 320#0000000000080033
(2.562357) can0 247#0600ff0000
(2.563434) can0 127#0010000800009ae2
(2.566397) can0 020#0000072b
(2.566646) can0 0b4#00000000000000bc
(2.566882) can0 025#0fff0fff787878b1
(2.567132) can0 3b7#0000000000000008
(2.567619) can0 024#020001fd420080ee
(2.569378) can0 380#0000000000002f00
(2.572538) can0 1c4#00000000000000cd
(2.572790) can0 224#0000000000000008
(2.574245) can0 260#000000000000006a
(2.578567) can0 020#0000072b
(2.578785) can0 230#0000000100003a
(2.579023) can0 025#0fff0fff787878b1
(2.579613) can0 024#020001fd420080ee
(2.579853) can0 127#0010000800009ae2
(2.583850) can0 245#000000004c
(2.584586) can0 2a4#00000000ab
(2.585922) can0 247#0600ff0000
(2.590388) can0 3a0#000000000000003a
(2.590730) can0 020#0000072b
(2.590981) can0 0b4#00000000000000bc
(2.591215) can0 025#0fff0fff787878b1
(2.591613) can0 024#020001fd420080ee
(2.593481) can0 45c#4002002101000000
(2.594193) can0 260#000000000000006a
(2.596075) can0 1c4#00000000000000cd
(2.596319) can0 127#0010000800009be3
(2.596843) can0 224#0000000000000008
(2.602780) can0 020#0000072b
(2.603006) can0 230#0000000100003a
(2.603242) can0 025#0fff0fff787878b1
(2.603613) can0 024#020001fd420080ee
(2.605289) can0 620#1000ffffb0100050
(2.607398) can0 245#000000004c
(2.608872) can0 320#0000000000080033
(2.609460) can0 247#0600ff0000
(2.612578) can0 127#0010000800009be3
(2.614194) can0 260#000000000000006a
(2.614844) can0 020#0000072b
(2.615092) can0 0b4#00000000000000bc
(2.615329) can0 025#0fff0fff787878b1
(2.615602) can0 024#020001fd420080ee
(2.619645) can0 1c4#00000000000000cd
(2.620689) can0 361#80000000
(2.620939) can0 224#0000000000000008
(2.626849) can0 020#0000072b
(2.627075) can0 230#0000000100003a
(2.627312) can0 025#0fff0fff787878b1
(2.627598) can0 024#020001fd420080ee
(2.628953) can0 127#0010000800009be3
(2.630967) can0 245#000000004c
(2.632937) can0 2a4#00000000ab
(2.633125) can0 247#0600ff0000
(2.634235) can0 260#000000000000006a
(2.638905) can0 020#0000072b
(2.639154) can0 0b4#00000000000000bc
(2.639390) can0 025#0fff0fff787878b1
(2.639630) can0 024#020001fd420080ee
(2.643182) can0 1c4#00000000000000cd
(2.645035) can0 224#0000000000000008
(2.645347) can0 127#0010000800009be3
(2.650901) can0 020#0000072b
(2.651127) can0 230#0000000100003a
(2.651363) can0 025#0fff0fff787878b1
(2.651608) can0 024#020001fd420080ee
(2.654144) can0 6f9#0000000000000000
(2.654392) can0 260#000000000000006a
(2.654578) can0 245#000000004c
(2.656536) can0 247#0600ff0000
(2.657052) can0 320#0000000000080033
(2.657302) can0 38e#2040000000000000
(2.660139) can0 387#000000003f3f3f3f
(2.661706) can0 127#0010000800009be3
(2.662923) can0 020#0000072b
(2.663171) can0 0b4#00000000000000bc
(2.663407) can0 025#0fff0fff787878b1
(2.663647) can0 024#020001fd420080ee
(2.666779) can0 1c4#00000000000000cd
(2.668637) can0 423#00
(2.669096) can0 224#0000000000000008
(2.674187) can0 260#000000000000006a
(2.675041) can0 020#0000072b
(2.675270) can0 230#0000000100003a
(2.675508) can0 025#0fff0fff787878b1
(2.675748) can0 024#020001fd420080ee
(2.676002) can0 6c0#e40080a000000000
(2.678100) can0 127#0010000800009be3
(2.678295) can0 245#000000004c
(2.680124) can0 247#0600ff0000
(2.681076) can0 2a4#00000000ab
(2.685199) can0 361#80000000
(2.687095) can0 020#0000072b
(2.687352) can0 0b4#00000000000000bc
(2.687586) can0 025#0fff0fff787878b1
(2.687824) can0 024#020001fd420080ee
(2.688071) can0 4c3#0300000100000000
(2.690328) can0 1c4#00000000000000cd
(2.692407) can0 3a0#000000000000003a
(2.693178) can0 224#0000000000000008
(2.694234) can0 260#000000000000006a
(2.694488) can0 127#0010000800009be3
(2.695262) can0 440#4202001000000000
(2.699174) can0 020#0000072b
(2.699385) can0 230#0000000100003a
(2.699627) can0 024#020001fd420080ee
(2.699859) can0 025#0fff0fff787878b1
(2.701185) can0 610#20000064c0fffd40
(2.701586) can0 245#000000004c
(2.703649) can0 247#0600ff0000
(2.705189) can0 320#0000000000080033
(2.710872) can0 127#0010000800009be3
(2.711180) can0 020#0000072b
(2.711429) can0 0b4#00000000000000bc
(2.711669) can0 024#020001fd420080ee
(2.711906) can0 025#0fff0fff787878b1
(2.713866) can0 1c4#00000000000000cd
(2.714205) can0 260#000000000000006a
(2.717210) can0 224#0000000000000008
(2.723209) can0 020#0000072b
(2.723434) can0 230#0000000100003a
(2.723676) can0 024#020001fd420080ee
(2.723912) can0 025#0fff0fff787878b1
(2.725153) can0 245#000000004c
(2.727248) can0 127#0010000800009be3
(2.727421) can0 247#0600ff0000
(2.728963) can0 394#0000
(2.729237) can0 2a4#00000000ab
(2.734149) can0 260#000000000000006a
(2.735265) can0 020#0000072b
(2.735513) can0 0b4#00000000000000bc
(2.735751) can0 024#020001fd420080ee
(2.735990) can0 025#0fff0fff787878b1
(2.737408) can0 1c4#00000000000000cd
(2.741370) can0 224#0000000000000008
(2.743626) can0 127#0010000800009be3
(2.746698) can0 3f9#702c5602000000f8
(2.747318) can0 020#0000072b
(2.747548) can0 230#0000000100003a
(2.747792) can0 024#020001fd420080ee
(2.748026) can0 025#0fff0fff787878b1
(2.748690) can0 245#000000004c
(2.748823) can0 353#0000
(2.749710) can0 361#80000000
(2.750737) can0 247#0600ff0000
(2.753487) can0 320#0000000000080033
(2.754202) can0 260#000000000000006a
(2.759351) can0 020#0000072b
(2.759591) can0 0b4#00000000000000bc
(2.759828) can0 025#0fff0fff787878b1
(2.760069) can0 127#0010000800009be3
(2.760603) can0 024#020001fd420080ee
(2.760977) can0 1c4#00000000000000cd
(2.765539) can0 224#0000000000000008
(2.771429) can0 020#0000072b
(2.771649) can0 230#0000000100003a
(2.771876) can0 025#0fff0fff787878b1
(2.772219) can0 245#000000004c
(2.772602) can0 024#020001fd420080ee
(2.774146) can0 260#000000000000006a
(2.774320) can0 247#0600ff0000
(2.774575) can0 389#0020000000000000
(2.776381) can0 127#0010000800009be3
(2.777159) can0 458#5804001200000000
(2.777503) can0 2a4#00000000ab
(2.783463) can0 020#0000072b
(2.783708) can0 0b4#00000000000000bc
(2.783952) can0 025#0fff0fff828282cf
(2.784510) can0 1c4#00000000000000cd
(2.784755) can0 024#020001fd420080ee
(2.789620) can0 224#0000000000000008
(2.791184) can0 442#4302000002000000
(2.791429) can0 3a0#000000000000003b
(2.792758) can0 127#0010000800009be3
(2.794209) can0 260#000000000000006a
(2.795566) can0 020#0000072b
(2.795791) can0 230#0000000100003a
(2.796020) can0 025#0fff0fff787878b1
(2.796200) can0 245#000000004c
(2.796595) can0 024#020001fd420080ee
(2.797828) can0 247#0600ff0000
(2.801600) can0 320#0000000000080033
(2.807608) can0 020#0000072b
(2.807843) can0 0b4#00000000000000bc
(2.808076) can0 025#0fff0fff787878b1
(2.808328) can0 1c4#00000000000000cd
(2.808610) can0 024#020001fd420080ee
(2.809129) can0 127#0010000800009be3
(2.813646) can0 224#0000000000000008
(2.814188) can0 361#80000000
(2.814435) can0 260#000000000000006a
(2.819344) can0 245#000000004c
(2.819684) can0 020#0000072b
(2.819899) can0 230#0000000100003a
(2.820134) can0 025#0fff0fff787878b1
(2.820590) can0 024#020001fd420080ee
(2.821359) can0 247#0600ff0000
(2.825517) can0 127#0010000800009be3
(2.825691) can0 2a4#00000000ab
(2.831628) can0 1c4#00000000000000cd
(2.831778) can0 020#0000072b
(2.832034) can0 0b4#00000000000000bc
(2.832284) can0 025#0fff0fff787878b1
(2.832585) can0 024#020001fd420080ee
(2.834177) can0 260#000000000000006a
(2.837676) can0 224#0000000000000008
(2.841902) can0 127#0010000800009be3
(2.842873) can0 245#000000004c
(2.843720) can0 020#0000072b
(2.843958) can0 230#0000000100003a
(2.844187) can0 025#0fff0fff787878b1
(2.844586) can0 024#020001fd420080ee
(2.844903) can0 247#0600ff0000
(2.849792) can0 320#0000000000080033
(2.854135) can0 260#000000000000006a
(2.855191) can0 1c4#00000000000000cd
(2.855748) can0 020#0000072b
(2.856000) can0 0b4#00000000000000bc
(2.856238) can0 025#0fff0fff787878b1
(2.856585) can0 024#020001fd420080ee
(2.858291) can0 127#0010000800009be3
(2.861871) can0 224#0000000000000008
(2.866409) can0 245#000000004c
(2.867007) can0 4dd#1e00110200000000
(2.867767) can0 020#0000072b
(2.867991) can0 230#0000000100003a
(2.868228) can0 025#0fff0fff787878b1
(2.868480) can0 3b7#0000000000000008
(2.868718) can0 024#020001fd420080ee
(2.868905) can0 247#0600ff0000
(2.873867) can0 2a4#00000000ab
(2.874167) can0 260#000000000000006a
(2.874644) can0 127#0010000800009be3
(2.878740) can0 1c4#00000000000000cd
(2.878890) can0 361#80000000
(2.879771) can0 3b6#8064011000020100
(2.879937) can0 020#0000072b
(2.880186) can0 0b4#00000000000000bc
(2.880427) can0 025#0fff0fff787878b1
(2.880663) can0 024#020001fd420080ee
(2.885989) can0 224#0000000000000008
(2.889959) can0 245#000000004c
(2.890431) can0 3a0#000000000000003b
(2.891023) can0 127#0010000800009be3
(2.891835) can0 020#0000072b
(2.892077) can0 230#0000000100003a
(2.892301) can0 025#0fff0fff787878b1
(2.892477) can0 247#0600ff0000
(2.892726) can0 024#020001fd420080ee
(2.894140) can0 260#000000000000006a
(2.895274) can0 63b#16003a6b0000036f
(2.897994) can0 320#0000000000080033
(2.902305) can0 1c4#00000000000000cd
(2.903016) can0 3b1#0000020a00080000
(2.903871) can0 020#0000072b
(2.904122) can0 0b4#00000000000000bc
(2.904355) can0 025#0fff0fff787878b1
(2.904596) can0 024#020001fe420080ef
(2.905218) can0 620#1000ffffb0100050
(2.907408) can0 127#0010000800009be3
(2.910021) can0 224#0000000000000008
(2.910485) can0 498#c10000004c470000
(2.912529) can0 49c#40100ca800503500
(2.913510) can0 245#000000004c
(2.914133) can0 260#000000000000006a
(2.914377) can0 443#4d02002005000000
(2.914617) can0 4a7#00006c3f000500c8
(2.915547) can0 247#0600ff0000
(2.915909) can0 020#0000072b
(2.916137) can0 230#0000000100003a
(2.916373) can0 025#0fff0fff787878b1
(2.916615) can0 024#020001fe420080ef
(2.916855) can0 4ad#0000005d9d0003c0
(2.921970) can0 2a4#00000000ab
(2.922610) can0 633#8100000000000000
(2.923786) can0 127#0010000800009be3
(2.925839) can0 1c4#00000000000000cd
(2.927954) can0 020#0000072b
(2.928189) can0 0b4#00000000000000bc
(2.928434) can0 025#0fff0fff787878b1
(2.928677) can0 024#020001fe420080ef
(2.930903) can0 39b#0004001000
(2.934121) can0 224#0000000000000008
(2.934316) can0 260#000000000000006a
(2.937044) can0 245#000000004c
(2.939099) can0 247#0600ff0000
(2.940159) can0 127#0010000800009be3
(2.940311) can0 020#0000072b
(2.940553) can0 230#0000000100003a
(2.940811) can0 025#0fff0fff787878b1
(2.941039) can0 4a0#06b8000000000000
(2.941284) can0 4a1#000080808020c102
(2.941523) can0 4a2#190000ca0035b001
(2.941760) can0 024#020001fd420080ee
(2.943169) can0 361#80000000
(2.946137) can0 320#0000000000080033
(2.949415) can0 1c4#00000000000000cd
(2.952160) can0 020#0000072b
(2.952400) can0 0b4#00000000000000bc
(2.952639) can0 024#020001fd420080ee
(2.952876) can0 025#0fff0fff787878b1
(2.954133) can0 260#000000000000006a
(2.956549) can0 127#0010000800009be3
(2.958265) can0 224#0000000000000008
(2.960597) can0 245#000000004c
(2.962648) can0 247#0600ff0000
(2.964196) can0 020#0000072b
(2.964420) can0 230#0000000100003a
(2.964652) can0 024#020001fd420080ee
(2.964895) can0 025#0fff0fff787878b1
(2.970226) can0 2a4#00000000ab
(2.972923) can0 127#0010000800009be3
(2.973163) can0 1c4#00000000000000cd
(2.974119) can0 260#000000000000006a
(2.975208) can0 6c0#e40080a000000000
(2.976244) can0 020#0000072b
(2.976496) can0 0b4#00000000000000bc
(2.976738) can0 024#020001fd420080ee
(2.976978) can0 025#0fff0fff787878b1
(2.982430) can0 224#0000000000000008
(2.983594) can0 4ac#98000000c700b3a0
(2.984124) can0 245#000000004c
(2.986181) can0 247#0600ff0000
(2.988316) can0 020#0000072b
(2.988532) can0 230#0000000100003a
(2.988771) can0 025#0fff0fff787878b1
(2.989287) can0 127#0010000800009be3
(2.989539) can0 3a0#000000000000003a
(2.989782) can0 024#020001fd420080ee
(2.991376) can0 499#d300250000000000
(2.992363) can0 49a#0013250049401c78
(2.994179) can0 260#000000000000006a
(2.994497) can0 320#0000000000080033
(2.995456) can0 49b#00a0222000004000
(2.996473) can0 3f9#702c5602000000f8
(2.996712) can0 1c4#00000000000000cd
(2.997471) can0 49d#5f5e01509d19e698
(2.998422) can0 353#0000
(2.999561) can0 4a8#0006a00000000004
(3.000549) can0 4ae#008000c001280248
(3.000707) can0 020#0000072b
(3.000966) can0 0b4#00000000000000bc
(3.001265) can0 025#0fff0fff828282cf
(3.001551) can0 024#020001fd420080ee
(3.002603) can0 4af#0044d00000000000
(3.005665) can0 127#0010000800009be3
(3.006541) can0 224#0000000000000008
(3.007703) can0 245#000000004c
(3.007851) can0 361#80000000
(3.008653) can0 3d3#0000
(3.009709) can0 247#0600ff0000
(3.012553) can0 020#0000072b
(3.012743) can0 230#0000000100003a
(3.012981) can0 025#0fff0fff787878b1
(3.013216) can0 44d#5c02001101000000
(3.013536) can0 024#020001fd420080ee
(3.014077) can0 260#000000000000006a
(3.014319) can0 389#0020000000000000
(3.017198) can0 458#5804001200000000
(3.018508) can0 2a4#00000000ab
(3.020041) can0 1c4#00000000000000cd
(3.022059) can0 127#0010000800009be3
(3.024572) can0 020#0000072b
(3.024804) can0 0b4#00000000000000bc
(3.025040) can0 025#0fff0fff787878b1
(3.025546) can0 024#020001fd420080ee
(3.028142) can0 3b9#720000
(3.029015) can0 394#0000
(3.030628) can0 224#0000000000000008
(3.031218) can0 245#000000004c
(3.033269) can0 247#0600ff0000
(3.034117) can0 260#000000000000006a
(3.036594) can0 020#0000072b
(3.036810) can0 230#0000000100003a
(3.037048) can0 025#0fff0fff787878b1
(3.037543) can0 024#020001fd420080ee
(3.038437) can0 127#0010000800009be3
(3.042704) can0 320#0000000000080033
(3.043571) can0 4a6#0000000022222200
(3.043827) can0 1c4#00000000000000cd
(3.048695) can0 020#0000072b
(3.048930) can0 0b4#00000000000000bc
(3.049161) can0 025#0fff0fff787878b1
(3.049543) can0 024#020001fd420080ee
(3.054165) can0 260#000000000000006a
(3.054410) can0 2fc#8000000000000000
(3.054805) can0 127#0010000800009be3
(3.055056) can0 224#0000000000000008
(3.055245) can0 245#000000004c
(3.056833) can0 247#0600ff0000
(3.060721) can0 020#0000072b
(3.060944) can0 230#0000000100003a
(3.061186) can0 025#0fff0fff787878b1
(3.061544) can0 024#020001fd420080ee
(3.066877) can0 2a4#00000000ab
(3.067142) can0 1c4#00000000000000cd
(3.071199) can0 127#0010000800009be3
(3.072149) can0 361#80000000
(3.072742) can0 020#0000072b
(3.072995) can0 0b4#00000000000000bc
(3.073226) can0 025#0fff0fff787878b1
(3.073540) can0 024#020001fd420080ee
(3.074127) can0 260#000000000000006a
(3.074379) can0 434#414000c000000000
(3.078314) can0 245#000000004c
(3.078887) can0 224#0000000000000008
(3.080365) can0 247#0600ff0000
(3.081429) can0 38b#000000002c1900
(3.083480) can0 421#0000000000000000
(3.084778) can0 020#0000072b
(3.085004) can0 230#0000000100003a
(3.085232) can0 025#0fff0fff787878b1
(3.085535) can0 024#020001fd420080ee
(3.087572) can0 127#0010000800009be3
(3.090744) can0 1c4#00000000000000cd
(3.090957) can0 320#0000000000080033
(3.091446) can0 3a0#000000000000003a
(3.094076) can0 260#000000000000006a
(3.094306) can0 435#800505ffe02f4003
(3.096852) can0 020#0000072b
(3.097083) can0 0b4#00000000000000bc
(3.097319) can0 025#0fff0fff787878b1
(3.097559) can0 024#020001fd420080ee
(3.101879) can0 245#000000004c
(3.102957) can0 224#0000000000000008
(3.103947) can0 127#0010000800009be3
(3.104142) can0 247#0600ff0000
(3.108881) can0 020#0000072b
(3.109097) can0 230#0000000100003a
(3.109334) can0 025#0fff0fff787878b1
(3.109571) can0 024#020001fd420080ee
(3.109828) can0 3bc#0020000000000000
(3.113159) can0 399#00000000000000
(3.114140) can0 260#000000000000006a
(3.114351) can0 1c4#00000000000000cd
(3.114946) can0 2a4#00000000ab
(3.117313) can0 45c#4002002101000000
(3.120333) can0 127#0010000800009be3
(3.120992) can0 020#0000072b
(3.121241) can0 0b4#00000000000000bc
(3.121475) can0 025#0fff0fff787878b1
(3.121718) can0 024#020001fd420080ee
(3.125409) can0 245#000000004c
(3.127033) can0 224#0000000000000008
(3.127436) can0 247#0600ff0000
(3.133014) can0 020#0000072b
(3.133227) can0 230#0000000100003a
(3.133465) can0 025#0fff0fff787878b1
(3.133712) can0 024#020001fd420080ee
(3.134057) can0 260#000000000000006a
(3.134308) can0 38f#0100000000000000
(3.136707) can0 127#0010000800009be3
(3.136870) can0 361#80000000
(3.137825) can0 1c4#00000000000000cd
(3.139029) can0 320#0000000000080033
(3.145036) can0 020#0000072b
(3.145248) can0 0b4#00000000000000bc
(3.145483) can0 025#0fff0fff787878b1
(3.145723) can0 024#020001fd420080ee
(3.148912) can0 245#000000004c
(3.150983) can0 247#0600ff0000
(3.151234) can0 224#0000000000000008
(3.153063) can0 127#0010000800009be3
(3.154092) can0 260#000000000000006a
(3.157053) can0 020#0000072b
(3.157280) can0 230#0000000100003a
(3.157516) can0 025#0fff0fff787878b1
(3.157756) can0 024#020001fd420080ee
(3.161340) can0 1c4#00000000000000cd
(3.163087) can0 2a4#00000000ab
(3.169117) can0 020#0000072b
(3.169365) can0 0b4#00000000000000bc
(3.169605) can0 024#020001fd420080ee
(3.169842) can0 025#0fff0fff787878b1
(3.170084) can0 127#0010000800009be3
(3.170334) can0 3b7#0000000000000008
(3.171156) can0 611#21000012000184f8
(3.172460) can0 245#000000004c
(3.174296) can0 260#000000000000006a
(3.174518) can0 247#0600ff0000
(3.175308) can0 224#0000000000000008
(3.181190) can0 020#0000072b
(3.181417) can0 230#0000000100003a
(3.181657) can0 024#020001fd420080ee
(3.181899) can0 025#0fff0fff828282cf
(3.184907) can0 1c4#00000000000000cd
(3.185820) can0 127#0010000800009be3
(3.187379) can0 320#0000000000080033
(3.190457) can0 3a0#000000000000003a
(3.192730) can0 630#1700000000000000
(3.193330) can0 020#0000072b
(3.193578) can0 0b4#00000000000000bc
(3.193814) can0 025#0fff0fff787878b1
(3.194063) can0 260#000000000000006a
(3.194505) can0 024#020001fd420080ee
(3.196024) can0 245#000000004c
(3.198048) can0 247#0600ff0000
(3.199438) can0 224#0000000000000008
(3.201108) can0 361#80000000
(3.201350) can0 610#20000064c0fffd40
(3.201790) can0 632#8000000000000000
(3.202198) can0 127#0010000800009be3
(3.205132) can0 620#1000ffffb0100050
(3.205438) can0 020#0000072b
(3.205665) can0 230#0000000100003a
(3.205901) can0 025#0fff0fff787878b1
(3.206505) can0 024#020001fe420080ef
(3.208445) can0 1c4#00000000000000cd
(3.211401) can0 2a4#00000000ab
(3.212762) can0 635#8300000000000000
(3.214026) can0 260#000000000000006a
(3.217464) can0 020#0000072b
(3.217712) can0 0b4#00000000000000bc
(3.217951) can0 025#0fff0fff787878b1
(3.218503) can0 024#020001fe420080ef
(3.218740) can0 127#0010000800009ae2
(3.219556) can0 245#000000004c
(3.220126) can0 440#4202001000000000
(3.220451) can0 383#1100010000000000
(3.220745) can0 4dc#1d00001000000000
(3.221595) can0 247#0600ff0000
(3.223525) can0 224#0000000000000008
(3.229483) can0 020#0000072b
(3.229710) can0 230#0000000100003a
(3.229950) can0 025#0fff0fff787878b1
(3.230500) can0 024#020001fe420080ef
(3.232012) can0 1c4#00000000000000cd
(3.234070) can0 260#000000000000006a
(3.234959) can0 127#0010000800009be3
(3.235590) can0 320#0000000000080033
(3.241507) can0 020#0000072b
(3.241755) can0 0b4#00000000000000bc
(3.241991) can0 025#0fff0fff787878b1
(3.242502) can0 024#020001fe420080ef
(3.243089) can0 245#000000004c
(3.245161) can0 247#0600ff0000
(3.246217) can0 3f9#702c5602000000f8
(3.247585) can0 224#0000000000000008
(3.248167) can0 353#0000
(3.251335) can0 127#0010000800009be3
(3.253538) can0 020#0000072b
(3.253765) can0 230#0000000100003a
(3.254001) can0 025#0fff0fff787878b1
(3.254249) can0 260#000000000000006a
(3.254495) can0 389#0020000000000000
(3.254737) can0 024#020001fe420080ef
(3.255550) can0 1c4#00000000000000cd
(3.257162) can0 458#5804001200000000
(3.259544) can0 2a4#00000000ab
(3.264780) can0 4c1#0100000200000000
(3.265542) can0 020#0000072b
(3.265791) can0 0b4#00000000000000bc
(3.266027) can0 025#0fff0fff787878b1
(3.266197) can0 361#80000000
(3.266493) can0 024#020001fe420080ef
(3.266679) can0 245#000000004c
(3.267714) can0 127#0010000800009be3
(3.268693) can0 247#0600ff0000
(3.271752) can0 224#0000000000000008
(3.274043) can0 260#000000000000006a
(3.275043) can0 6c0#e40080a000000000
(3.277594) can0 020#0000072b
(3.277820) can0 230#0000000100003a
(3.278057) can0 025#0fff0fff787878b1
(3.278488) can0 024#020001fd420080ee
(3.279117) can0 1c4#00000000000000cd
(3.283785) can0 320#0000000000080033
(3.284107) can0 127#0010000800009be3
(3.289671) can0 020#0000072b
(3.289920) can0 0b4#00000000000000bc
(3.290156) can0 025#0fff0fff787878b1
(3.290342) can0 245#000000004c
(3.290582) can0 024#020001fd420080ee
(3.292226) can0 247#0600ff0000
(3.292481) can0 3a0#000000000000003a
(3.294113) can0 260#000000000000006a
(3.295864) can0 224#0000000000000008
(3.298610) can0 4c6#0700020000000000
(3.300489) can0 127#0010000800009be3
(3.301453) can0 3bb#00000000
(3.301775) can0 020#0000072b
(3.302006) can0 230#0000000100003a
(3.302239) can0 025#0fff0fff787878b1
(3.302499) can0 024#020001fd420080ee
(3.302748) can0 1c4#00000000000000cd
(3.307818) can0 2a4#00000000ab
(3.308876) can0 4c8#0900000000000000
(3.311178) can0 442#4302000002000000
(3.313749) can0 245#000000004c
(3.313911) can0 020#0000072b
(3.314166) can0 0b4#00000000000000bc
(3.314405) can0 025#0fff0fff787878b1
(3.314647) can0 024#020001fd420080ee
(3.314892) can0 260#000000000000006a
(3.315791) can0 247#0600ff0000
(3.316886) can0 127#0010000800009ae2
(3.319896) can0 224#0000000000000008
(3.325876) can0 020#0000072b
(3.326090) can0 230#0000000100003a
(3.326322) can0 025#0fff0fff787878b1
(3.326563) can0 024#020001fd420080ee
(3.326807) can0 1c4#00000000000000cd
(3.328763) can0 394#0000
(3.330120) can0 621#1100000000000000
(3.330279) can0 361#80000000
(3.331921) can0 320#0000000000080033
(3.333236) can0 127#0010000800009ae2
(3.334041) can0 260#000000000000006a
(3.337293) can0 245#000000004c
(3.337933) can0 020#0000072b
(3.338176) can0 0b4#00000000000000bc
(3.338413) can0 025#0fff0fff787878b1
(3.338654) can0 024#020001fd420080ee
(3.339347) can0 247#0600ff0000
(3.340120) can0 622#1200000000000000
(3.343981) can0 224#0000000000000008
(3.349615) can0 127#0010000800009ae2
(3.349860) can0 1c4#00000000000000cd
(3.350035) can0 020#0000072b
(3.350256) can0 230#0000000100003a
(3.350493) can0 025#0fff0fff787878b1
(3.350732) can0 024#020001fd420080ee
(3.350980) can0 623#1900000000000000
(3.354141) can0 260#000000000000006a
(3.356016) can0 2a4#00000000ab
(3.360825) can0 245#000000004c
(3.362049) can0 020#0000072b
(3.362300) can0 0b4#00000000000000bc
(3.362535) can0 024#020001fd420080ee
(3.362778) can0 025#0fff0fff787878b1
(3.362965) can0 247#0600ff0000
(3.365104) can0 624#1a00574949400000
(3.366001) can0 127#0010000800009be3
(3.368224) can0 224#0000000000000008
(3.373356) can0 1c4#00000000000000cd
(3.374001) can0 260#000000000000006a
(3.374169) can0 020#0000072b
(3.374397) can0 230#0000000100003a
(3.374644) can0 024#020001fd420080ee
(3.374879) can0 025#0fff0fff787878b1
(3.375122) can0 626#1c00300000000000
(3.380328) can0 320#0000000000080033
(3.382378) can0 127#0010000800009be3
(3.384392) can0 245#000000004c
(3.385121) can0 638#13001f0000000000
(3.386209) can0 020#0000072b
(3.386456) can0 0b4#00000000000000bc
(3.386697) can0 024#020001fd420080ee
(3.386937) can0 025#0fff0fff787878b1
(3.387118) can0 247#0600ff0000
(3.388497) can0 3a0#000000000000003a
(3.392372) can0 224#0000000000000008
(3.394032) can0 260#000000000000006a
(3.394593) can0 361#80000000
(3.395118) can0 63b#16003a6b00000374
(3.396891) can0 1c4#00000000000000cd
(3.398323) can0 020#0000072b
(3.398540) can0 230#0000000100003a
(3.398791) can0 025#0fff0fff828282cf
(3.399030) can0 127#0010000800009be3
(3.399480) can0 024#020001fd420080ee
(3.404317) can0 2a4#00000000ab
(3.407958) can0 245#000000004c
(3.409967) can0 247#0600ff0000
(3.410211) can0 498#c10000004c470000
(3.410371) can0 020#0000072b
(3.410630) can0 0b4#00000000000000bc
(3.410879) can0 025#0fff0fff787878b1
(3.411096) can0 63c#98004e4850130060
(3.411478) can0 024#020001fd420080ee
(3.412241) can0 49c#40100ca800503500
(3.414072) can0 260#000000000000006a
(3.414313) can0 4a7#00006c3f000500c8
(3.415142) can0 127#0010000800009be3
(3.416352) can0 4ad#0000005d9d0003c0
(3.416593) can0 224#0000000000000008
(3.420458) can0 1c4#00000000000000cd
(3.422396) can0 020#0000072b
(3.422607) can0 230#0000000100003a
(3.422859) can0 025#0fff0fff787878b1
(3.423477) can0 024#020001fd420080ee
(3.425092) can0 63d#99004348584e4200
(3.428465) can0 320#0000000000080033
(3.431543) can0 127#0010000800009be3
(3.431695) can0 245#000000004c
(3.433530) can0 247#0600ff0000
(3.434017) can0 260#000000000000006a
(3.434260) can0 443#4d02002005000000
(3.434426) can0 020#0000072b
(3.434678) can0 0b4#00000000000000bc
(3.434924) can0 025#0fff0fff787878b1
(3.435168) can0 680#d800010000000000
(3.435494) can0 024#020001fd420080ee
(3.440543) can0 224#0000000000000008
(3.440733) can0 4a0#06b8000000000000
(3.440973) can0 4a1#000080808020c102
(3.441230) can0 4a2#190000ca0034b001
(3.443984) can0 1c4#00000000000000cd
(3.446464) can0 020#0000072b
(3.446666) can0 230#0000000100003a
(3.446904) can0 025#0fff0fff787878b1
(3.447486) can0 024#020001fd41ff80ec
(3.447900) can0 127#0010000800009be3
(3.452516) can0 2a4#00000000ab
(3.452719) can0 420#00000000fdfe80a7
(3.453990) can0 260#000000000000006a
(3.455014) can0 245#000000004c
(3.457070) can0 247#0600ff0000
(3.458472) can0 020#0000072b
(3.458721) can0 0b4#00000000000000bc
(3.458960) can0 025#0fff0fff787878b1
(3.459121) can0 361#80000000
(3.459481) can0 024#020001fe41ff80ed
(3.460496) can0 3a1#0000002040000000
(3.464291) can0 127#0010000800009be3
(3.464635) can0 224#0000000000000008
(3.467565) can0 1c4#00000000000000cd
(3.470510) can0 020#0000072b
(3.470724) can0 230#0000000100003a
(3.470961) can0 025#0fff0fff787878b1
(3.471205) can0 3b7#0000000000000008
(3.471471) can0 024#020001fe41ff80ed
(3.474046) can0 260#000000000000006a
(3.476654) can0 320#0000000000080033
(3.478577) can0 245#000000004c
(3.480657) can0 127#0010000800009ae2
(3.480837) can0 247#0600ff0000
(3.482563) can0 020#0000072b
(3.482810) can0 0b4#00000000000000bc
(3.483037) can0 025#0fff0fff787878b1
(3.483470) can0 024#020001fe41ff80ed
(3.484466) can0 4ac#18004000c900d3a0
(3.488713) can0 224#0000000000000008
(3.490507) can0 3a0#000000000000003a
(3.490911) can0 499#d300250000000000
(3.491159) can0 1c4#00000000000000cd
