(4154504685.303673) can0 361#80000000
(4154504685.305496) can0 320#0000000000080033
(4154504685.306590) can0 3a0#000000000000003d
(4154504685.311536) can0 260#000000000000006a
(4154504685.311705) can0 020#0000072b
(4154504685.311954) can0 0b4#00000000000000bc
(4154504685.312192) can0 025#0ff80fff787878aa
(4154504685.312436) can0 127#0010000800014790
(4154504685.312630) can0 245#000000004c
(4154504685.312874) can0 024#020001fe41ff80ed
(4154504685.313898) can0 247#0600ff0000
(4154504685.317642) can0 224#2000000001cb0008
(4154504685.321841) can0 1c4#00000000000000cd
(4154504685.323333) can0 4a6#0000000024242400
(4154504685.323599) can0 020#0000072b
(4154504685.323829) can0 230#0000000400003d
(4154504685.324067) can0 025#0ff80fff787878aa
(4154504685.324698) can0 024#020001fe41ff80ed
(4154504685.328263) can0 127#0010000800014790
(4154504685.329758) can0 2a4#00000000ab
(4154504685.330827) can0 610#20000064c0fffd40
(4154504685.331333) can0 3f9#702c5602000000f8
(4154504685.331582) can0 260#000000000000006a
(4154504685.333282) can0 353#0000
(4154504685.335374) can0 245#000000004c
(4154504685.335721) can0 020#0000072b
(4154504685.335969) can0 0b4#00000000000000bc
(4154504685.336207) can0 025#0ff80fff787878aa
(4154504685.336689) can0 024#020001fe41ff80ed
(4154504685.337439) can0 247#0600ff0000
(4154504685.341976) can0 224#2000000001cb0008
(4154504685.344641) can0 127#0010000800014790
(4154504685.345377) can0 1c4#00000000000000cd
(4154504685.347997) can0 020#0000072b
(4154504685.348227) can0 230#0000000400003d
(4154504685.348470) can0 025#0ff80fff828282c8
(4154504685.348714) can0 024#020001fe41ff80ed
(4154504685.351579) can0 260#000000000000006a
(4154504685.354254) can0 320#0000000000080033
(4154504685.356300) can0 633#8100000000000000
(4154504685.358937) can0 245#000000004c
(4154504685.360147) can0 020#0000072b
(4154504685.360396) can0 0b4#00000000000000bc
(4154504685.360634) can0 025#0ff80fff787878aa
(4154504685.360878) can0 024#020001fe41ff80ed
(4154504685.361122) can0 127#0010000800014790
(4154504685.361318) can0 247#0600ff0000
(4154504685.362012) can0 4c6#0700020000000000
(4154504685.366377) can0 224#2000000001cb0008
(4154504685.368119) can0 361#80000000
(4154504685.368947) can0 1c4#00000000000000cd
(4154504685.371546) can0 260#000000000000006a
(4154504685.372338) can0 020#0000072b
(4154504685.372569) can0 230#0000000400003d
(4154504685.372813) can0 024#020001fe41ff80ed
(4154504685.373051) can0 025#0ff80fff787878aa
(4154504685.377406) can0 127#0010000800014790
(4154504685.378666) can0 2a4#00000000ab
(4154504685.378916) can0 3b7#0000000000000008
(4154504685.382471) can0 245#000000004c
(4154504685.384512) can0 247#0600ff0000
(4154504685.384682) can0 020#0000072b
(4154504685.384931) can0 0b4#00000000000000bc
(4154504685.385169) can0 025#0ff80fff787878aa
(4154504685.385682) can0 024#020001fe41ff80ed
(4154504685.389216) can0 440#4202001000000000
(4154504685.390864) can0 224#2000000001cb0008
(4154504685.391542) can0 260#000000000000006a
(4154504685.392482) can0 1c4#00000000000000cd
(4154504685.393786) can0 127#0010000800014790
(4154504685.396808) can0 020#0000072b
(4154504685.397038) can0 230#0000000400003d
(4154504685.397281) can0 025#0ff80fff828282c8
(4154504685.397685) can0 024#020001fe41ff80ed
(4154504685.398759) can0 6c0#e40080a000000000
(4154504685.403013) can0 320#0000000000080033
(4154504685.405593) can0 3a0#000000000000003d
(4154504685.406003) can0 245#000000004c
(4154504685.408075) can0 247#0600ff0000
(4154504685.409017) can0 020#0000072b
(4154504685.409265) can0 0b4#00000000000000bc
(4154504685.409504) can0 025#0ff80fff787878aa
(4154504685.409747) can0 024#020001fe41ff80ed
(4154504685.410155) can0 127#0010000800014790
(4154504685.411768) can0 260#000000000000006a
(4154504685.415126) can0 224#2000000001cb0008
(4154504685.416050) can0 1c4#00000000000000cd
(4154504685.421082) can0 020#0000072b
(4154504685.421312) can0 230#0000000400003d
(4154504685.421551) can0 025#0ff80fff787878aa
(4154504685.421795) can0 024#020001fe41ff80ed
(4154504685.424209) can0 621#1100000000000000
(4154504685.426542) can0 127#0010000800014790
(4154504685.427177) can0 2a4#00000000ab
(4154504685.429548) can0 245#000000004c
(4154504685.431532) can0 260#000000000000006a
(4154504685.431720) can0 247#0600ff0000
(4154504685.432626) can0 361#80000000
(4154504685.433098) can0 020#0000072b
(4154504685.433346) can0 0b4#00000000000000bc
(4154504685.433584) can0 025#0ff80fff787878aa
(4154504685.433829) can0 024#020001fe41ff80ed
(4154504685.438118) can0 3b1#0000020a00080000
(4154504685.439207) can0 623#1900000000000000
(4154504685.439451) can0 224#2000000001cb0008
(4154504685.439699) can0 1c4#00000000000000cd
(4154504685.442920) can0 127#0010000800014790
(4154504685.445152) can0 020#0000072b
(4154504685.445382) can0 230#0000000400003d
(4154504685.445621) can0 025#0ff80fff787878aa
(4154504685.445863) can0 024#020001fe420080ef
(4154504685.451343) can0 320#0000000000080033
(4154504685.451591) can0 260#000000000000006a
(4154504685.453118) can0 245#000000004c
(4154504685.454195) can0 624#1a00574949400000
(4154504685.455139) can0 247#0600ff0000
(4154504685.457293) can0 020#0000072b
(4154504685.457542) can0 0b4#00000000000000bc
(4154504685.457784) can0 024#020001fe420080ef
(4154504685.458022) can0 025#0ff80fff787878aa
(4154504685.459298) can0 127#0010000800014790
(4154504685.463154) can0 1c4#00000000000000cd
(4154504685.463440) can0 224#2000000001cb0008
(4154504685.469202) can0 638#13001f0000000000
(4154504685.469447) can0 498#c100000049460000
(4154504685.469620) can0 020#0000072b
(4154504685.469847) can0 230#0000000400003d
(4154504685.470089) can0 025#0ff80fff828282c8
(4154504685.470664) can0 024#020001fe420080ef
(4154504685.471340) can0 49c#40100ca800503800
(4154504685.471588) can0 260#000000000000006a
(4154504685.473382) can0 4a7#00006c25000500c8
(4154504685.475434) can0 4ad#0000005d9d000460
(4154504685.475678) can0 127#0010000800014790
(4154504685.475868) can0 2a4#00000000ab
(4154504685.476648) can0 245#000000004c
(4154504685.478684) can0 247#0600ff0000
(4154504685.479202) can0 620#1000fffff0000000
(4154504685.480714) can0 442#4d02000002000000
(4154504685.481558) can0 020#0000072b
(4154504685.481807) can0 0b4#00000000000000bc
(4154504685.482081) can0 025#0ff80fff787878aa
(4154504685.482661) can0 024#020001fe420080ef
(4154504685.486693) can0 1c4#00000000000000cd
(4154504685.487730) can0 224#2000000001cb0008
(4154504685.489184) can0 63b#16003a6400000118
(4154504685.491518) can0 260#000000000000006a
(4154504685.492056) can0 127#0010000800014790
(4154504685.493627) can0 020#0000072b
(4154504685.493858) can0 230#0000000400003d
(4154504685.494096) can0 025#0ff80fff787878aa
(4154504685.494662) can0 024#020001fe420080ef
(4154504685.497103) can0 361#80000000
(4154504685.499228) can0 63c#98004e4850130060
(4154504685.499764) can0 320#0000000000080033
(4154504685.500186) can0 245#000000004c
(4154504685.502252) can0 247#0600ff0000
(4154504685.504598) can0 3a0#000000000000003d
(4154504685.505648) can0 020#0000072b
(4154504685.505896) can0 0b4#00000000000000bc
(4154504685.506135) can0 025#0ff80fff787878aa
(4154504685.506657) can0 024#020001fe420080ef
(4154504685.508432) can0 127#001000080001468f
(4154504685.509180) can0 63d#99004348584e4200
(4154504685.510261) can0 1c4#00000000000000cd
(4154504685.511513) can0 260#000000000000006a
(4154504685.511895) can0 224#2000000001cb0008
(4154504685.517859) can0 020#0000072b
(4154504685.518089) can0 230#0000000400003d
(4154504685.518328) can0 025#0ff80fff787878aa
(4154504685.518648) can0 024#020001fe420080ef
(4154504685.519194) can0 680#d800010000000000
(4154504685.519642) can0 4ac#98000000da00b3a0
(4154504685.523729) can0 245#000000004c
(4154504685.523945) can0 2a4#00000000ab
(4154504685.524803) can0 127#001000080001468f
(4154504685.525785) can0 247#0600ff0000
(4154504685.529957) can0 020#0000072b
(4154504685.530206) can0 0b4#00000000000000bc
(4154504685.530444) can0 025#0ff80fff787878aa
(4154504685.530686) can0 024#020001fe420080ef
(4154504685.531560) can0 260#000000000000006a
(4154504685.533800) can0 1c4#00000000000000cd
(4154504685.536133) can0 224#2000000001cb0008
(4154504685.541200) can0 127#001000080001468f
(4154504685.542053) can0 020#0000072b
(4154504685.542275) can0 230#0000000400003d
(4154504685.542514) can0 025#0ff80fff787878aa
(4154504685.542754) can0 024#020001fd420080ee
(4154504685.547320) can0 245#000000004c
(4154504685.548225) can0 320#0000000000080033
(4154504685.549329) can0 247#0600ff0000
(4154504685.551576) can0 260#000000000000006a
(0.002570) can0 020#0000072b
(0.002749) can0 0b4#00000000000000bc
(0.003004) can0 025#0ff80fff787878aa
(0.003251) can0 024#020001fd420080ee
(0.005768) can0 1c4#00000000000000cd
(0.005997) can0 127#001000080001468f
(0.008722) can0 224#2000000001cb0008
(0.009965) can0 361#80000000
(0.014621) can0 394#0000
(0.014791) can0 020#0000072b
(0.015024) can0 230#0000000400003d
(0.015259) can0 025#0ff80fff787878aa
(0.016036) can0 024#020001fd420080ee
(0.019208) can0 245#000000004c
(0.019859) can0 260#000000000000006a
(0.020967) can0 2a4#00000000ab
(0.021257) can0 247#0600ff0000
(0.022325) can0 127#0010000800014790
(0.024392) can0 499#d3002500000007f0
(0.024752) can0 44d#5c02001101000000
(0.025387) can0 49a#0013260059602278
(0.026362) can0 39b#0004001000
(0.026915) can0 020#0000072b
(0.027163) can0 0b4#00000000000000bc
(0.027401) can0 025#0ff80fff787878aa
(0.028033) can0 024#020001fd420080ee
(0.028487) can0 49b#00a0242000004000
(0.029290) can0 1c4#00000000000000cd
(0.029533) can0 3f9#702c5602000000f8
(0.030502) can0 49d#5f5f01cc971de657
(0.031440) can0 353#0000
(0.032587) can0 4a8#0006600000000004
(0.033232) can0 224#2000000001cb0008
(0.033580) can0 4ae#008000c001280248
(0.035678) can0 4af#0042d00000000000
(0.038705) can0 127#0010000800014790
(0.039277) can0 020#0000072b
(0.039508) can0 230#0000000400003d
(0.039749) can0 025#0ff80fff828282c8
(0.040005) can0 260#000000000000006a
(0.040238) can0 024#020001fd420080ee
(0.042746) can0 245#000000004c
(0.044812) can0 247#0600ff0000
(0.045474) can0 320#0000000000080033
(0.051399) can0 020#0000072b
(0.051648) can0 0b4#00000000000000bc
(0.051885) can0 025#0ff80fff787878aa
(0.052125) can0 024#020101fe420080f0
(0.052896) can0 1c4#00000000000000cd
(0.053082) can0 38b#000000002c1900
(0.054998) can0 3a0#000000000000003d
(0.055239) can0 127#0010000800014790
(0.055492) can0 421#0000000000000000
(0.057684) can0 224#2000000001cb0008
(0.059898) can0 260#000000000000006a
(0.063703) can0 020#0000072b
(0.063933) can0 230#0000000400003d
(0.064173) can0 024#020101fe420080f0
(0.064411) can0 025#0ff80fff787878aa
(0.066284) can0 245#000000004c
(0.068347) can0 247#0600ff0000
(0.069798) can0 2a4#00000000ab
(0.071462) can0 127#0010000800014790
(0.074457) can0 361#80000000
(0.075771) can0 020#0000072b
(0.076020) can0 0b4#00000000000000bc
(0.076258) can0 025#0ff80fff787878aa
(0.076506) can0 1c4#00000000000000cd
(0.076750) can0 4c3#0300000100000000
(0.077018) can0 024#020101fe420080f0
(0.079868) can0 260#000000000000006a
(0.080118) can0 630#1700000000000000
(0.082108) can0 224#2000000001cb0008
(0.087842) can0 127#0010000800014790
(0.088088) can0 020#0000072b
(0.088317) can0 230#0000000400003d
(0.088560) can0 025#0ff80fff828282c8
(0.088803) can0 4a0#06b7000000000000
(0.089043) can0 024#020101fe420080f0
(0.089284) can0 4a1#0000807f80a0d202
(0.089514) can0 4a2#530000a94656bc03
(0.089764) can0 613#2800000000000000
(0.089950) can0 245#000000004c
(0.090196) can0 632#8000000000000000
(0.091911) can0 247#0600ff0000
(0.094243) can0 320#0000000000080033
(0.098838) can0 635#8300000000000000
(0.099884) can0 260#000000000000006a
(0.100133) can0 1c4#00000000000000cd
(0.100302) can0 020#0000072b
(0.100551) can0 0b4#00000000000000bc
(0.100789) can0 025#0ff80fff787878aa
(0.101033) can0 024#020101fe420080f0
(0.102539) can0 626#1c00000000000000
(0.104218) can0 127#0010000800014790
(0.106391) can0 224#2000000001cb0008
(0.112369) can0 020#0000072b
(0.112548) can0 230#0000000400003d
(0.112787) can0 025#0ff80fff787878aa
(0.113030) can0 024#020101fe420080f0
(0.113385) can0 245#000000004c
(0.115423) can0 247#0600ff0000
(0.118460) can0 2a4#00000000ab
(0.119831) can0 260#000000000000006a
(0.120598) can0 127#0010000800014790
(0.123508) can0 1c4#00000000000000cd
(0.124397) can0 020#0000072b
(0.124645) can0 0b4#00000000000000bc
(0.124883) can0 025#0ff80fff787878aa
(0.125123) can0 024#020101fe420080f0
(0.125369) can0 45c#4002002101000000
(0.129288) can0 611#21000012000184e0
(0.130612) can0 224#2000000001cb0008
(0.130860) can0 3b7#0000000000000008
(0.136554) can0 020#0000072b
(0.136785) can0 230#0000000400003d
(0.137027) can0 024#020101fe41ff80ee
(0.137265) can0 025#0ff80fff787878aa
(0.137510) can0 127#0010000800014790
(0.137703) can0 245#000000004c
(0.138993) can0 247#0600ff0000
(0.139167) can0 361#80000000
(0.139855) can0 260#000000000000006a
(0.142706) can0 320#0000000000080033
(0.147010) can0 6c0#e40080a000000000
(0.147254) can0 1c4#00000000000000cd
(0.148686) can0 020#0000072b
(0.148935) can0 0b4#00000000000000bc
(0.149177) can0 024#020101fe41ff80ee
(0.149415) can0 025#0ff80fff787878aa
(0.153354) can0 127#0010000800014790
(0.154005) can0 3a0#000000000000003d
(0.154808) can0 224#2000000001cb0008
(0.155257) can0 4c1#0100000200000000
(0.159897) can0 260#000000000000006a
(0.160465) can0 245#000000004c
(0.160740) can0 020#0000072b
(0.160970) can0 230#0000000400003d
(0.161212) can0 024#020101fe41ff80ee
(0.161450) can0 025#0ff80fff787878aa
(0.162522) can0 247#0600ff0000
(0.166936) can0 2a4#00000000ab
(0.169732) can0 127#0010000800014790
(0.170604) can0 1c4#00000000000000cd
(0.172924) can0 020#0000072b
(0.173173) can0 0b4#00000000000000bc
(0.173415) can0 025#0ff80fff828282c8
(0.174005) can0 024#020101fe41ff80ee
(0.179063) can0 224#2000000001cb0008
(0.179841) can0 260#000000000000006a
(0.184010) can0 383#1100010000000000
(0.184194) can0 245#000000004c
(0.184442) can0 4dc#1d00001000000000
(0.185032) can0 020#0000072b
(0.185262) can0 230#0000000400003d
(0.185503) can0 025#0ff80fff787878aa
(0.186010) can0 024#020001fe41ff80ed
(0.186253) can0 127#0010000800014790
(0.186449) can0 247#0600ff0000
(0.188166) can0 423#00
(0.191167) can0 320#0000000000080033
(0.194171) can0 1c4#00000000000000cd
(0.197173) can0 020#0000072b
(0.197422) can0 0b4#00000000000000bc
(0.197660) can0 025#0ff80fff787878aa
(0.198005) can0 024#020001fe41ff80ed
(0.199836) can0 260#000000000000006a
(0.202489) can0 127#0010000800014790
(0.203357) can0 224#2000000001cb0008
(0.203527) can0 361#80000000
(0.207562) can0 245#000000004c
(0.209254) can0 020#0000072b
(0.209485) can0 230#0000000400003d
(0.209723) can0 025#0ff80fff787878aa
(0.209911) can0 247#0600ff0000
(0.210155) can0 024#020001fe41ff80ed
(0.212477) can0 3d3#0000
(0.215398) can0 2a4#00000000ab
(0.217708) can0 1c4#00000000000000cd
(0.218868) can0 127#0010000800014790
(0.219882) can0 260#000000000000006a
(0.221370) can0 020#0000072b
(0.221618) can0 0b4#00000000000000bc
(0.221857) can0 025#0ff80fff787878aa
(0.222101) can0 024#020001fe41ff80ed
(0.222507) can0 620#1000fffff0000000
(0.227502) can0 440#4202001000000000
(0.227741) can0 224#2000000001cb0008
(0.231095) can0 245#000000004c
(0.233166) can0 247#0600ff0000
(0.233544) can0 020#0000072b
(0.233775) can0 230#0000000400003d
(0.234019) can0 024#020001fe41ff80ed
(0.234257) can0 025#0ff80fff787878aa
(0.235247) can0 127#0010000800014790
(0.239721) can0 320#0000000000080033
(0.239970) can0 260#000000000000006a
(0.240215) can0 420#00000000fdfe80a7
(0.241275) can0 1c4#00000000000000cd
(0.245650) can0 020#0000072b
(0.245898) can0 0b4#00000000000000bc
(0.246143) can0 024#020001fe41ff80ed
(0.246380) can0 025#0ff80fff787878aa
(0.251648) can0 127#0010000800014790
(0.251884) can0 224#2000000001cc0008
(0.254642) can0 245#000000004c
(0.256012) can0 3a0#000000000000003d
(0.256698) can0 247#0600ff0000
(0.257738) can0 020#0000072b
(0.257969) can0 230#0000000400003d
(0.258207) can0 025#0ff80fff787878aa
(0.258996) can0 024#020001fe41fe80ec
(0.259797) can0 260#000000000000006a
(0.260420) can0 4dd#1e00110200000000
(0.263994) can0 2a4#00000000ab
(0.264814) can0 1c4#00000000000000cd
(0.268005) can0 127#0010000800014790
(0.268183) can0 361#80000000
(0.270071) can0 020#0000072b
(0.270319) can0 0b4#00000000000000bc
(0.270562) can0 025#0ff80fff828282c8
(0.270996) can0 024#020001fe41fe80ec
(0.276268) can0 224#2000000001cb0008
(0.278204) can0 245#000000004c
(0.279236) can0 610#20000064c0fffd40
(0.279478) can0 3f9#702c5602000000f8
(0.280054) can0 260#000000000000006a
(0.280242) can0 247#0600ff0000
(0.281212) can0 353#0000
(0.282220) can0 020#0000072b
(0.282451) can0 230#0000000400003d
(0.282689) can0 025#0ff80fff787878aa
(0.282983) can0 024#020001fe41fe80ec
(0.284383) can0 127#0010000800014790
(0.287491) can0 622#1200883000000000
(0.288382) can0 1c4#00000000000000cd
(0.288630) can0 320#0000000000080033
(0.294532) can0 020#0000072b
(0.294780) can0 0b4#00000000000000bc
(0.295026) can0 024#020001fe41fe80ec
(0.295265) can0 025#0ff80fff787878aa
(0.299814) can0 260#000000000000006a
(0.300696) can0 224#2000000001cb0008
(0.300941) can0 127#0010000800014790
(0.301738) can0 245#000000004c
(0.303775) can0 247#0600ff0000
(0.306593) can0 020#0000072b
(0.306824) can0 230#0000000400003d
(0.307070) can0 024#020001fe41fe80ec
(0.307308) can0 025#0ff80fff787878aa
(0.311918) can0 1c4#00000000000000cd
(0.312770) can0 2a4#00000000ab
(0.314526) can0 394#0000
(0.317140) can0 127#0010000800014790
(0.318834) can0 020#0000072b
(0.319082) can0 0b4#00000000000000bc
(0.319320) can0 025#0ff80fff787878aa
(0.319565) can0 442#4d02000002000000
(0.319837) can0 260#000000000000006a
(0.320083) can0 024#020001fe41fe80ec
(0.325067) can0 224#2000000001cb0008
(0.325281) can0 245#000000004c
(0.327341) can0 247#0600ff0000
(0.331047) can0 020#0000072b
(0.331278) can0 230#0000000400003d
(0.331520) can0 025#0ff80fff828282c8
(0.331990) can0 024#020001fe41fe80ec
(0.332420) can0 361#80000000
(0.333518) can0 127#0010000800014790
(0.335486) can0 1c4#00000000000000cd
(0.337338) can0 320#0000000000080033
(0.339836) can0 260#000000000000006a
(0.343220) can0 020#0000072b
(0.343469) can0 0b4#00000000000000bc
(0.343707) can0 025#0ff80fff787878aa
(0.343975) can0 024#020001fe41ff80ed
(0.348819) can0 245#000000004c
(0.349380) can0 224#2000000001cb0008
(0.349904) can0 127#0010000800014790
(0.350875) can0 247#0600ff0000
(0.352052) can0 3a0#000000000000003d
(0.355316) can0 020#0000072b
(0.355546) can0 230#0000000400003d
(0.355785) can0 025#0ff80fff787878aa
(0.356029) can0 024#020001fe41ff80ed
(0.359025) can0 1c4#00000000000000cd
(0.359771) can0 260#000000000000006a
(0.361467) can0 2a4#00000000ab
(0.366274) can0 127#001000080001468f
(0.367546) can0 020#0000072b
(0.367794) can0 0b4#00000000000000bc
(0.368039) can0 024#020001fe41ff80ed
(0.368277) can0 025#0ff80fff787878aa
(0.372381) can0 245#000000004c
(0.373640) can0 224#2000000001cb0008
(0.374407) can0 247#0600ff0000
(0.379604) can0 020#0000072b
(0.379834) can0 230#0000000400003d
(0.380076) can0 024#020001fe420080ef
(0.380314) can0 025#0ff80fff787878aa
(0.380563) can0 260#000000000000006a
(0.382593) can0 1c4#00000000000000cd
(0.382835) can0 127#001000080001468f
(0.385859) can0 320#0000000000080033
(0.391800) can0 020#0000072b
(0.392048) can0 0b4#00000000000000bc
(0.392286) can0 025#0ff80fff787878aa
(0.392962) can0 024#020001fe420080ef
(0.395915) can0 245#000000004c
(0.396934) can0 361#80000000
(0.397953) can0 247#0600ff0000
(0.398197) can0 224#2000000001cc0008
(0.399029) can0 127#001000080001468f
(0.400017) can0 260#000000000000006a
(0.404005) can0 020#0000072b
(0.404236) can0 230#0000000400003d
(0.404479) can0 025#0ff80fff828282c8
(0.404960) can0 024#020001fe420180f0
(0.406130) can0 1c4#00000000000000cd
(0.410141) can0 2a4#00000000ab
(0.414963) can0 44d#5c02001101000000
(0.415410) can0 127#001000080001468f
(0.416095) can0 020#0000072b
(0.416344) can0 0b4#00000000000000bc
(0.416582) can0 025#0ff80fff787878aa
(0.416958) can0 024#020001fe420180f0
(0.417404) can0 498#c100000049460000
(0.419448) can0 49c#40100ca800503800
(0.419635) can0 245#000000004c
(0.419883) can0 260#000000000000006a
(0.421491) can0 4a7#00006c25000500c8
(0.421679) can0 247#0600ff0000
(0.422284) can0 224#2000000001cb0008
(0.423542) can0 4ad#0000005d9d000460
(0.424028) can0 3a1#0000002040000000
(0.428156) can0 020#0000072b
(0.428386) can0 230#0000000400003d
(0.428625) can0 025#0ff80fff787878aa
(0.428951) can0 024#020001fe420180f0
(0.429697) can0 1c4#00000000000000cd
(0.431786) can0 127#001000080001468f
(0.432449) can0 63b#16003a640000011d
(0.434401) can0 320#0000000000080033
(0.434651) can0 3b7#0000000000000008
(0.435877) can0 3b6#8064011000000100
(0.439752) can0 260#000000000000006a
(0.440408) can0 020#0000072b
(0.440657) can0 0b4#00000000000000bc
(0.440895) can0 025#0ff80fff787878aa
(0.441137) can0 024#020001fe420180f0
(0.442996) can0 245#000000004c
(0.445052) can0 247#0600ff0000
(0.446537) can0 224#2000000001cb0008
(0.446883) can0 6c0#e40080a000000000
(0.448167) can0 127#001000080001468f
(0.452527) can0 020#0000072b
(0.452727) can0 230#0000000400003d
(0.452966) can0 025#0ff80fff787878aa
(0.453208) can0 024#020001fe420180f0
(0.453455) can0 1c4#00000000000000cd
(0.454032) can0 3a0#000000000000003d
(0.458590) can0 2a4#00000000ab
(0.459798) can0 260#000000000000006a
(0.461413) can0 361#80000000
(0.464543) can0 127#001000080001468f
(0.464713) can0 020#0000072b
(0.464961) can0 0b4#00000000000000bc
(0.465200) can0 025#0ff80fff787878aa
(0.465956) can0 024#020001fe420180f0
(0.466558) can0 245#000000004c
(0.466944) can0 4ac#18004000c10003a0
(0.468584) can0 247#0600ff0000
(0.470736) can0 224#2000000001cb0008
(0.476634) can0 020#0000072b
(0.476882) can0 1c4#00000000000000cd
(0.477124) can0 024#020001fe420180f0
(0.477363) can0 025#0ff80fff787878aa
(0.477593) can0 230#0000000400003d
(0.479743) can0 260#000000000000006a
(0.480922) can0 127#001000080001468f
(0.482875) can0 320#0000000000080033
(0.484035) can0 3b0#00a0004f00000000
(0.488915) can0 020#0000072b
(0.489163) can0 0b4#00000000000000bc
(0.489402) can0 025#0ff80fff787878aa
(0.489950) can0 024#020001fe420180f0
(0.490136) can0 245#000000004c
(0.492129) can0 247#0600ff0000
(0.495038) can0 224#2000000001cb0008
(0.497301) can0 127#001000080001468f
(0.499787) can0 260#000000000000006a
(0.500341) can0 1c4#00000000000000cd
(0.500977) can0 020#0000072b
(0.501207) can0 230#0000000400003d
(0.501449) can0 025#0ff80fff828282c8
(0.501948) can0 024#020001fe420180f0
(0.507170) can0 2a4#00000000ab
(0.513108) can0 020#0000072b
(0.513357) can0 0b4#00000000000000bc
(0.513595) can0 025#0ff80fff787878aa
(0.513837) can0 127#001000080001468f
(0.514079) can0 024#020001fe420180f0
(0.514265) can0 245#000000004c
(0.514893) can0 4c8#0900000000000000
(0.515695) can0 247#0600ff0000
(0.516958) can0 45c#4002002101000000
(0.519322) can0 224#2000000001cb0008
(0.519846) can0 260#000000000000006a
(0.522432) can0 620#1000fffff0000000
(0.523907) can0 1c4#00000000000000cd
(0.524149) can0 499#d3002500000007f0
(0.524933) can0 49a#0013260059602278
(0.525359) can0 020#0000072b
(0.525589) can0 230#0000000400003d
(0.525828) can0 025#0ff80fff787878aa
(0.526070) can0 024#020001fe420180f0
(0.526240) can0 361#80000000
(0.528034) can0 49b#00a0242000004000
(0.529035) can0 3f9#702c5602000000f8
(0.530060) can0 127#001000080001468f
(0.530296) can0 49d#5f5f01cc971de657
(0.530989) can0 353#0000
(0.531631) can0 320#0000000000080033
(0.532131) can0 4a8#0006600000000004
(0.533125) can0 4ae#008000c001280248
(0.535040) can0 380#0000000000003100
(0.535282) can0 4af#0042d00000000000
(0.537173) can0 245#000000004c
(0.537523) can0 020#0000072b
(0.537772) can0 0b4#00000000000000bc
(0.538014) can0 024#020001fe420080ef
(0.538252) can0 025#0ff80fff787878aa
(0.539230) can0 247#0600ff0000
(0.539752) can0 260#000000000000006a
(0.543810) can0 224#2000000001cb0008
(0.546437) can0 127#001000080001468f
(0.547446) can0 1c4#00000000000000cd
(0.549806) can0 020#0000072b
(0.550036) can0 230#0000000400003d
(0.550274) can0 025#0ff80fff787878aa
(0.550937) can0 024#020101fe420080f0
(0.553066) can0 3a0#000000000000003d
(0.556040) can0 2a4#00000000ab
(0.559722) can0 260#000000000000006a
(0.560735) can0 245#000000004c
(0.561979) can0 020#0000072b
(0.562228) can0 0b4#00000000000000bc
(0.562470) can0 025#0ff80fff828282c8
(0.562826) can0 127#001000080001468f
(0.563066) can0 024#020101fe420080f0
(0.563254) can0 247#0600ff0000
(0.568187) can0 224#2000000001cb0008
(0.571024) can0 1c4#00000000000000cd
(0.571709) can0 4a6#0000000024242400
(0.574183) can0 020#0000072b
(0.574391) can0 230#0000000400003d
(0.574629) can0 025#0ff80fff787878aa
(0.574927) can0 024#020101fe41ff80ee
(0.579196) can0 127#001000080001468f
(0.579795) can0 260#000000000000006a
(0.580425) can0 320#0000000000080033
(0.584287) can0 245#000000004c
(0.586309) can0 247#0600ff0000
(0.586479) can0 020#0000072b
(0.586727) can0 0b4#00000000000000bc
(0.586969) can0 024#020101fe41ff80ee
(0.587208) can0 025#0ff80fff787878aa
(0.590406) can0 361#80000000
(0.592481) can0 224#2000000001cb0008
(0.592724) can0 4a0#06b7000000000000
(0.592967) can0 4a1#0000807f80a0d202
(0.593195) can0 4a2#530000a94656bc03
(0.594551) can0 1c4#00000000000000cd
(0.595574) can0 127#001000080001468f
(0.598456) can0 020#0000072b
(0.598671) can0 230#0000000400003d
(0.598914) can0 025#0ff80fff787878aa
(0.599149) can0 024#020101fe41fe80ed
(0.599747) can0 260#000000000000006a
(0.604580) can0 2a4#00000000ab
(0.607813) can0 245#000000004c
(0.608785) can0 3b9#690000
(0.609873) can0 247#0600ff0000
(0.610493) can0 020#0000072b
(0.610742) can0 0b4#00000000000000bc
(0.610982) can0 024#020101fe41fe80ed
(0.611220) can0 025#0ff80fff787878aa
(0.611954) can0 127#0010000800014790
(0.614679) can0 394#0000
(0.616686) can0 224#2000000001cb0008
(0.617400) can0 440#4202001000000000
(0.618118) can0 1c4#00000000000000cd
(0.619736) can0 260#000000000000006a
(0.622692) can0 020#0000072b
(0.622922) can0 230#0000000400003d
(0.623161) can0 025#0ff80fff787878aa
(0.623929) can0 024#020101fe41fe80ed
(0.628354) can0 127#0010000800014790
(0.628817) can0 320#0000000000080033
(0.631347) can0 245#000000004c
(0.633408) can0 247#0600ff0000
(0.634771) can0 020#0000072b
(0.635021) can0 0b4#00000000000000bc
(0.635317) can0 025#0ff80fff828282c8
(0.635933) can0 024#020101fe41fd80ec
(0.639799) can0 260#000000000000006a
(0.640908) can0 224#2000000001cc0008
(0.641661) can0 1c4#00000000000000cd
(0.644740) can0 127#0010000800014790
(0.646852) can0 020#0000072b
(0.647082) can0 230#0000000400003d
(0.647319) can0 025#0ff80fff787878aa
(0.647927) can0 024#020101fe41fd80ec
(0.653031) can0 2a4#00000000ab
(0.654916) can0 245#000000004c
(0.655165) can0 3a0#000000000000003d
(0.655333) can0 361#80000000
(0.656941) can0 247#0600ff0000
(0.658968) can0 020#0000072b
(0.659237) can0 0b4#00000000000000bc
(0.659480) can0 025#0ff80fff787878aa
(0.659727) can0 260#000000000000006a
(0.659967) can0 024#020101fe41fd80ec
(0.661125) can0 127#0010000800014790
(0.665197) can0 224#2000000001cc0008
(0.665413) can0 1c4#00000000000000cd
(0.671190) can0 020#0000072b
(0.671379) can0 230#0000000400003d
(0.671617) can0 025#0ff80fff787878aa
(0.671915) can0 024#020101fe41fd80ec
(0.677296) can0 320#0000000000080033
(0.677531) can0 127#0010000800014790
(0.678445) can0 245#000000004c
(0.679727) can0 260#000000000000006a
(0.680483) can0 247#0600ff0000
(0.683297) can0 020#0000072b
(0.683540) can0 0b4#00000000000000bc
(0.683778) can0 025#0ff80fff787878aa
(0.684020) can0 024#020101fe41fd80ec
(0.688768) can0 1c4#00000000000000cd
(0.689398) can0 224#2000000001cb0008
(0.693856) can0 127#0010000800014790
(0.695358) can0 020#0000072b
(0.695588) can0 230#0000000400003d
(0.695827) can0 025#0ff80fff787878aa
(0.696078) can0 024#020101fe41fe80ed
(0.699751) can0 260#000000000000006a
(0.701470) can0 2a4#00000000ab
(0.701995) can0 245#000000004c
(0.704051) can0 247#0600ff0000
(0.707411) can0 020#0000072b
(0.707652) can0 0b4#00000000000000bc
(0.707893) can0 025#0ff80fff787878aa
(0.708135) can0 024#020101fe41fe80ed
(0.709166) can0 442#4d02000002000000
(0.710226) can0 127#0010000800014790
(0.712338) can0 1c4#00000000000000cd
(0.713608) can0 224#2000000001cb0008
(0.715367) can0 3bc#0020000000000000
(0.717334) can0 3bb#01000000
(0.719442) can0 399#00000000000000
(0.719607) can0 020#0000072b
(0.719837) can0 230#0000000400003d
(0.720083) can0 024#020001fe41fe80ec
(0.720322) can0 025#0ff80fff787878aa
(0.720570) can0 260#000000000000006a
(0.720739) can0 361#80000000
(0.725525) can0 245#000000004c
(0.725772) can0 320#0000000000080033
(0.726605) can0 127#0010000800014790
(0.727584) can0 247#0600ff0000
(0.731639) can0 020#0000072b
(0.731887) can0 0b4#00000000000000bc
(0.732131) can0 024#020001fe41ff80ed
(0.732369) can0 025#0ff80fff787878aa
(0.735923) can0 1c4#00000000000000cd
(0.736782) can0 3d3#0000
(0.737803) can0 224#2000000001cb0008
(0.738020) can0 3b7#0000000000000008
(0.738895) can0 38a#0000000000
(0.739699) can0 260#000000000000006a
(0.742998) can0 127#0010000800014790
(0.743734) can0 020#0000072b
(0.743967) can0 230#0000000400003d
(0.744199) can0 025#0ff80fff787878aa
(0.744904) can0 024#020001fe41ff80ed
(0.746739) can0 6c0#e40080a000000000
(0.749094) can0 245#000000004c
(0.749839) can0 2a4#00000000ab
(0.751114) can0 247#0600ff0000
(0.754062) can0 3a0#000000000000003d
(0.755797) can0 020#0000072b
(0.756045) can0 0b4#00000000000000bc
(0.756284) can0 025#0ff80fff787878aa
(0.756902) can0 024#020001fe41ff80ed
(0.759360) can0 127#001000080001468f
(0.759607) can0 1c4#00000000000000cd
(0.759939) can0 260#000000000000006a
(0.762151) can0 224#2000000001cb0008
(0.768140) can0 020#0000072b
(0.768373) can0 230#0000000400003d
(0.768621) can0 025#0ff80fff828282c8
(0.768893) can0 024#020001fe420080ef
(0.770164) can0 4c6#0700020000000000
(0.772626) can0 245#000000004c
(0.774348) can0 320#0000000000080033
(0.774663) can0 247#0600ff0000
(0.775738) can0 127#001000080001468f
(0.778830) can0 3f9#702c5602000000f8
(0.779262) can0 610#20000064c0fffd40
(0.779733) can0 260#000000000000006a
(0.780362) can0 020#0000072b
(0.780600) can0 0b4#00000000000000bc
(0.780839) can0 025#0ff80fff787878aa
(0.781081) can0 024#020001fe420080ef
(0.781215) can0 353#0000
(0.782984) can0 1c4#00000000000000cd
(0.783857) can0 361#80000000
(0.786633) can0 224#2000000001cb0008
(0.792123) can0 127#001000080001468f
(0.792640) can0 020#0000072b
(0.792873) can0 230#0000000400003d
(0.793110) can0 025#0ff80fff787878aa
(0.793894) can0 024#020001fe420080ef
(0.796174) can0 245#000000004c
(0.798228) can0 247#0600ff0000
(0.798741) can0 2a4#00000000ab
(0.799663) can0 260#000000000000006a
(0.804791) can0 020#0000072b
(0.805024) can0 0b4#00000000000000bc
(0.805262) can0 025#0ff80fff787878aa
(0.805501) can0 44d#5c02001101000000
(0.805747) can0 633#8100000000000000
(0.805993) can0 024#020001fe420080ef
(0.806541) can0 1c4#00000000000000cd
(0.808498) can0 127#001000080001468f
(0.811135) can0 224#2000000001cb0008
(0.817185) can0 020#0000072b
(0.817413) can0 230#0000000400003d
(0.817640) can0 025#0ff80fff828282c8
(0.817893) can0 024#020001fe420180f0
(0.819731) can0 260#000000000000006a
(0.819909) can0 245#000000004c
(0.821782) can0 247#0600ff0000
(0.822378) can0 620#1000fffff0000000
(0.823470) can0 320#0000000000080033
(0.824906) can0 127#001000080001468f
(0.829342) can0 020#0000072b
(0.829587) can0 0b4#00000000000000bc
(0.829815) can0 025#0ff80fff787878aa
(0.830054) can0 024#020001fe420180f0
(0.830306) can0 1c4#00000000000000cd
(0.835522) can0 224#2000000001cb0008
(0.839706) can0 260#000000000000006a
(0.841277) can0 127#0010000800014790
(0.841427) can0 020#0000072b
(0.841675) can0 230#0000000400003d
(0.841917) can0 025#0ff80fff787878aa
(0.842148) can0 024#020001fe420180f0
(0.843290) can0 245#000000004c
(0.845328) can0 247#0600ff0000
(0.847560) can0 2a4#00000000ab
(0.848365) can0 361#80000000
(0.853594) can0 020#0000072b
(0.853830) can0 0b4#00000000000000bc
(0.854073) can0 024#020001fe420180f0
(0.854310) can0 025#0ff80fff787878aa
(0.854559) can0 1c4#00000000000000cd
(0.856115) can0 3a0#000000000000003d
(0.857654) can0 127#0010000800014790
(0.859706) can0 260#000000000000006a
(0.859941) can0 224#2000000001cc0008
(0.865723) can0 020#0000072b
(0.865942) can0 230#0000000400003d
(0.866177) can0 025#0ff80fff787878aa
(0.866828) can0 245#000000004c
(0.867066) can0 024#020001fe420180f0
(0.868855) can0 247#0600ff0000
(0.871933) can0 320#0000000000080033
(0.872355) can0 621#1100000000000000
(0.874051) can0 127#0010000800014790
(0.877204) can0 1c4#00000000000000cd
(0.877791) can0 020#0000072b
(0.878056) can0 0b4#00000000000000bc
(0.878289) can0 025#0ff80fff828282c8
(0.878903) can0 024#020001fe420180f0
(0.879771) can0 260#000000000000006a
(0.884040) can0 224#2000000001cc0008
(0.886337) can0 3b1#0000020a00080000
(0.887368) can0 623#1900000000000000
(0.890013) can0 020#0000072b
(0.890234) can0 230#0000000400003d
(0.890468) can0 025#0ff80fff787878aa
(0.890709) can0 127#0010000800014790
(0.890960) can0 024#020001fe420180f0
(0.891139) can0 245#000000004c
(0.892426) can0 247#0600ff0000
(0.896080) can0 2a4#00000000ab
(0.899677) can0 260#000000000000006a
(0.900771) can0 1c4#00000000000000cd
(0.902153) can0 020#0000072b
(0.902395) can0 0b4#00000000000000bc
(0.902625) can0 025#0ff80fff787878aa
(0.902860) can0 624#1a00574949400000
(0.903108) can0 024#020001fe420180f0
(0.906798) can0 127#0010000800014790
(0.908353) can0 224#2000000001cc0008
(0.908820) can0 45c#4002002101000000
(0.912885) can0 361#80000000
(0.913895) can0 245#000000004c
(0.914239) can0 020#0000072b
(0.914467) can0 230#0000000400003d
(0.914698) can0 025#0ff80fff787878aa
(0.914943) can0 024#020001fe420180f0
(0.915064) can0 394#0000
(0.915956) can0 247#0600ff0000
(0.917156) can0 498#c100000049460000
(0.917399) can0 638#13001f0000000000
(0.919189) can0 49c#40100ca800503800
(0.919662) can0 260#000000000000006a
(0.920452) can0 320#0000000000080033
(0.921235) can0 4a7#00006c25000500c8
(0.923177) can0 127#0010000800014790
(0.923402) can0 4ad#0000005d9d000460
(0.924334) can0 1c4#00000000000000cd
(0.926317) can0 020#0000072b
(0.926563) can0 0b4#00000000000000bc
(0.926802) can0 025#0ff80fff787878aa
(0.927041) can0 024#020001fe420180f0
(0.932346) can0 63b#16003a6400000122
(0.932575) can0 224#2000000001cb0008
(0.937467) can0 245#000000004c
(0.938471) can0 020#0000072b
(0.938716) can0 230#0000000400003d
(0.938946) can0 024#020001fe420080ef
(0.939185) can0 025#0ff80fff787878aa
(0.939541) can0 127#0010000800014790
(0.939792) can0 260#000000000000006a
(0.939978) can0 247#0600ff0000
(0.942342) can0 63c#98004e4850130060
(0.944579) can0 2a4#00000000ab
(0.947885) can0 1c4#00000000000000cd
(0.950648) can0 020#0000072b
(0.950860) can0 0b4#00000000000000bc
(0.951109) can0 025#0ff80fff787878aa
(0.951889) can0 024#020001fe420080ef
(0.952316) can0 63d#99004348584e4200
(0.955112) can0 3a0#000000000000003d
(0.955916) can0 127#0010000800014790
(0.956814) can0 224#2000000001cb0008
(0.959711) can0 260#000000000000006a
(0.961008) can0 245#000000004c
(0.962693) can0 020#0000072b
(0.962919) can0 230#0000000400003d
(0.963150) can0 025#0ff80fff787878aa
(0.963336) can0 247#0600ff0000
(0.963888) can0 024#020001fe420080ef
(0.966879) can0 4ac#28006000c20003a0
(0.967337) can0 680#d800010000000000
(0.968909) can0 320#0000000000080033
(0.971422) can0 1c4#00000000000000cd
(0.972299) can0 127#0010000800014790
(0.974849) can0 020#0000072b
(0.975074) can0 0b4#00000000000000bc
(0.975316) can0 025#0ff80fff787878aa
(0.975892) can0 024#020101fe41ff80ee
(0.977356) can0 361#80000000
(0.979671) can0 260#000000000000006a
(0.981107) can0 224#2000000001cc0008
(0.984537) can0 245#000000004c
(0.986607) can0 247#0600ff0000
(0.987079) can0 020#0000072b
(0.987325) can0 230#0000000400003d
(0.987556) can0 025#0ff80fff828282c8
(0.987873) can0 024#020101fe41ff80ee
(0.988676) can0 127#0010000800014790
(0.993303) can0 2a4#00000000ab
(0.994991) can0 1c4#00000000000000cd
(0.999232) can0 020#0000072b
(0.999476) can0 0b4#00000000000000bc
(0.999710) can0 025#0ff80fff787878aa
(0.999950) can0 024#020101fe41ff80ee
(1.000199) can0 260#000000000000006a
(1.005070) can0 127#0010000800014790
(1.005464) can0 224#2000000001cc0008
(1.007331) can0 440#4202001000000000
(1.008070) can0 245#000000004c
(1.010137) can0 247#0600ff0000
(1.011465) can0 020#0000072b
(1.011663) can0 230#0000000400003d
(1.011909) can0 024#020101fe41fe80ed
(1.012150) can0 025#0ff80fff787878aa
(1.017649) can0 320#0000000000080033
(1.017880) can0 4c3#0300000100000000
(1.018538) can0 1c4#00000000000000cd
(1.019647) can0 260#000000000000006a
(1.021437) can0 127#0010000800014790
(1.023513) can0 499#d3002500000007f0
(1.023659) can0 020#0000072b
(1.023915) can0 0b4#00000000000000bc
(1.024159) can0 025#0ff80fff787878aa
(1.024513) can0 49a#0013260059602278
(1.024869) can0 024#020001fe41fe80ec
(1.026512) can0 39b#0004001000
(1.027606) can0 49b#00a0242000004000
(1.028605) can0 3f9#702c5602000000f8
(1.029620) can0 49d#5f5f01cc971de656
(1.029858) can0 224#2000000001cb0008
(1.030548) can0 353#0000
(1.031638) can0 245#000000004c
(1.031908) can0 4a8#0006600000000004
(1.032692) can0 4ae#008000c001280248
(1.033664) can0 247#0600ff0000
(1.034766) can0 4af#0042d00000000000
(1.035647) can0 020#0000072b
(1.035878) can0 230#0000000400003d
(1.036105) can0 025#0ff80fff787878aa
(1.036899) can0 024#020001fe41fe80ec
(1.037815) can0 127#0010000800014790
(1.039676) can0 260#000000000000006a
(1.041817) can0 2a4#00000000ab
(1.041980) can0 361#80000000
(1.042231) can0 1c4#00000000000000cd
(1.042479) can0 3b7#0000000000000008
(1.046606) can0 6c0#e40080a000000000
(1.047929) can0 020#0000072b
(1.048175) can0 0b4#00000000000000bc
(1.048418) can0 025#0ff80fff828282c8
(1.048848) can0 024#020101fe41fe80ed
(1.053133) can0 38b#000000002c1900
(1.054042) can0 224#2000000001cc0008
(1.054286) can0 127#0010000800014790
(1.054533) can0 3a0#000000000000003d
(1.055154) can0 245#000000004c
(1.055411) can0 421#0000000000000000
(1.057191) can0 247#0600ff0000
(1.059673) can0 260#000000000000006a
(1.060053) can0 020#0000072b
(1.060283) can0 230#0000000400003d
(1.060523) can0 025#0ff80fff787878aa
(1.060840) can0 024#020101fe41fe80ed
(1.065606) can0 1c4#00000000000000cd
(1.065852) can0 4c1#0100000200000000
(1.066312) can0 320#0000000000080033
(1.070553) can0 127#0010000800014790
(1.072239) can0 020#0000072b
(1.072489) can0 0b4#00000000000000bc
(1.072726) can0 025#0ff80fff787878aa
(1.072966) can0 024#020101fe41fe80ed
(1.078372) can0 224#2000000001cc0008
(1.078684) can0 245#000000004c
(1.079618) can0 260#000000000000006a
(1.080307) can0 630#1700000000000000
(1.080758) can0 247#0600ff0000
(1.084345) can0 020#0000072b
(1.084575) can0 230#0000000400003d
(1.084813) can0 025#0ff80fff787878aa
(1.085053) can0 024#020101fe41fe80ed
(1.086934) can0 127#0010000800014790
(1.088763) can0 632#8000000000000000
(1.089170) can0 1c4#00000000000000cd
(1.090438) can0 2a4#00000000ab
(1.096500) can0 020#0000072b
(1.096749) can0 0b4#00000000000000bc
(1.096993) can0 024#020101fe41fe80ed
(1.097227) can0 025#0ff80fff787878aa
(1.097471) can0 4a0#06b7000000000000
(1.097713) can0 4a1#0000807f80a0d202
(1.097942) can0 4a2#530000a94656bc03
(1.098192) can0 635#8300000000000000
(1.099120) can0 442#4d02000002000000
(1.099616) can0 260#000000000000006a
(1.102282) can0 626#1c00000000000000
(1.102466) can0 245#000000004c
(1.102713) can0 224#2000000001cc0008
(1.103310) can0 127#0010000800014790
(1.104290) can0 247#0600ff0000
(1.106308) can0 361#80000000
(1.108520) can0 020#0000072b
(1.108750) can0 230#0000000400003d
(1.108996) can0 024#020101fe41fe80ed
(1.109229) can0 025#0ff80fff787878aa
(1.112710) can0 1c4#00000000000000cd
(1.114705) can0 320#0000000000080033
(1.119634) can0 260#000000000000006a
(1.119881) can0 127#0010000800014790
(1.120592) can0 020#0000072b
(1.120841) can0 0b4#00000000000000bc
(1.121080) can0 025#0ff80fff787878aa
(1.121834) can0 024#020101fe41fe80ed
(1.122301) can0 620#1000fffff0000000
(1.125796) can0 245#000000004c
(1.126724) can0 224#2000000001cc0008
(1.127823) can0 247#0600ff0000
(1.129273) can0 611#21000012000184e0
(1.132609) can0 020#0000072b
(1.132839) can0 230#0000000400003d
(1.133078) can0 025#0ff80fff787878aa
(1.133833) can0 024#020101fe41fe80ed
(1.136065) can0 127#001000080001468f
(1.136313) can0 1c4#00000000000000cd
(1.138754) can0 2a4#00000000ab
(1.139606) can0 260#000000000000006a
(1.144769) can0 020#0000072b
(1.145007) can0 0b4#00000000000000bc
(1.145248) can0 025#0ff80fff828282c8
(1.145834) can0 024#020101fe41fe80ed
(1.149359) can0 245#000000004c
(1.150881) can0 224#2000000001cb0008
(1.151379) can0 247#0600ff0000
(1.152445) can0 127#001000080001468f
(1.153107) can0 3a0#000000000000003d
(1.156935) can0 020#0000072b
(1.157167) can0 230#0000000400003d
(1.157406) can0 025#0ff80fff787878aa
(1.157828) can0 024#020101fe41ff80ee
(1.159574) can0 260#000000000000006a
(1.159823) can0 1c4#00000000000000cd
(1.163074) can0 320#0000000000080033
(1.168825) can0 127#001000080001468f
(1.169036) can0 020#0000072b
(1.169283) can0 0b4#00000000000000bc
(1.169522) can0 025#0ff80fff787878aa
(1.169820) can0 024#020101fe41ff80ee
(1.170821) can0 361#80000000
(1.172860) can0 245#000000004c
(1.174933) can0 247#0600ff0000
(1.175177) can0 224#2000000001cc0008
(1.179644) can0 260#000000000000006a
(1.181038) can0 020#0000072b
(1.181268) can0 230#0000000400003d
(1.181508) can0 025#0ff80fff787878aa
(1.181817) can0 024#020101fe41ff80ee
(1.183105) can0 4dc#1d00001000000000
(1.183382) can0 1c4#00000000000000cd
(1.185202) can0 127#001000080001468f
(1.187192) can0 2a4#00000000ab
(1.193103) can0 020#0000072b
(1.193350) can0 0b4#00000000000000bc
(1.193589) can0 025#0ff80fff787878aa
(1.193833) can0 024#020101fe420080f0
(1.195288) can0 44d#5c02001101000000
(1.195921) can0 423#00
(1.196407) can0 245#000000004c
(1.198467) can0 247#0600ff0000
(1.199277) can0 224#2000000001cc0008
(1.199564) can0 260#000000000000006a
(1.201581) can0 127#001000080001468f
(1.205204) can0 020#0000072b
(1.205434) can0 230#0000000400003d
(1.205675) can0 025#0ff80fff787878aa
(1.205915) can0 024#020001fe420080ef
(1.206920) can0 1c4#00000000000000cd
(1.211367) can0 320#0000000000080033
(1.214322) can0 394#0000
(1.217335) can0 020#0000072b
(1.217582) can0 0b4#00000000000000bc
(1.217821) can0 025#0ff80fff787878aa
(1.218062) can0 024#020001fe420080ef
(1.218304) can0 127#001000080001468f
(1.219623) can0 260#000000000000006a
(1.219974) can0 245#000000004c
(1.222002) can0 247#0600ff0000
(1.223490) can0 224#2000000001cc0008
(1.229450) can0 020#0000072b
(1.229678) can0 230#0000000400003d
(1.229918) can0 024#020101fe420080f0
(1.230157) can0 025#0ff80fff787878aa
(1.230485) can0 1c4#00000000000000cd
(1.234340) can0 127#001000080001468f
(1.235301) can0 361#80000000
(1.235619) can0 2a4#00000000ab
(1.239633) can0 260#000000000000006a
(1.241547) can0 020#0000072b
(1.241797) can0 0b4#00000000000000bc
(1.242039) can0 024#020101fe420080f0
(1.242275) can0 025#0ff80fff787878aa
(1.243507) can0 245#000000004c
(1.245547) can0 247#0600ff0000
(1.247775) can0 224#2000000001cc0008
(1.250721) can0 127#001000080001468f
(1.253805) can0 020#0000072b
(1.254056) can0 1c4#00000000000000cd
(1.254295) can0 025#0ff80fff828282c8
(1.254526) can0 230#0000000400003d
(1.254772) can0 420#00000000fdfe80a7
(1.255014) can0 024#020101fe420080f0
(1.255261) can0 3a0#000000000000003d
(1.259547) can0 260#000000000000006a
(1.260073) can0 320#0000000000080033
(1.261082) can0 3d3#0000
(1.265957) can0 020#0000072b
(1.266209) can0 0b4#00000000000000bc
(1.266444) can0 025#0ff80fff787878aa
(1.266809) can0 024#020101fe420180f1
(1.267107) can0 127#001000080001468f
(1.267300) can0 245#000000004c
(1.269110) can0 247#0600ff0000
(1.270242) can0 4dd#1e00110200000000
(1.272174) can0 224#2000000001cd0008
(1.277591) can0 1c4#00000000000000cd
(1.278056) can0 020#0000072b
(1.278287) can0 230#0000000400003d
(1.278526) can0 025#0ff80fff787878aa
(1.278769) can0 3f9#702c5602000000f8
(1.279008) can0 024#020101fe420180f1
(1.279248) can0 610#20000064c0fffd40
(1.279572) can0 260#000000000000006a
(1.280306) can0 353#0000
(1.283480) can0 127#001000080001468f
(1.284277) can0 2a4#00000000ab
(1.287243) can0 622#1200883000000000
(1.290304) can0 020#0000072b
(1.290548) can0 0b4#00000000000000bc
(1.290786) can0 025#0ff80fff787878aa
(1.291026) can0 024#020101fe420180f1
(1.291216) can0 245#000000004c
(1.292645) can0 247#0600ff0000
(1.296471) can0 224#2000000001cc0008
(1.296689) can0 45c#4002002101000000
(1.299620) can0 260#000000000000006a
(1.299855) can0 127#001000080001468f
(1.300035) can0 361#80000000
(1.301137) can0 1c4#00000000000000cd
(1.302437) can0 020#0000072b
(1.302666) can0 230#0000000400003d
(1.302905) can0 024#020101fe420180f1
(1.303154) can0 025#0ff80fff787878aa
(1.308563) can0 320#0000000000080033
(1.314159) can0 245#000000004c
(1.314440) can0 020#0000072b
(1.314691) can0 0b4#00000000000000bc
(1.314929) can0 024#020101fe420180f1
(1.315168) can0 025#0ff80fff787878aa
(1.316233) can0 127#001000080001468f
(1.316429) can0 247#0600ff0000
(1.319619) can0 260#000000000000006a
(1.320656) can0 224#2000000001cb0008
(1.324747) can0 1c4#00000000000000cd
(1.326548) can0 020#0000072b
(1.326767) can0 230#0000000400003d
(1.327005) can0 024#020101fe420080f0
(1.327238) can0 025#0ff80fff787878aa
(1.332634) can0 127#001000080001468f
(1.332810) can0 2a4#00000000ab
(1.337732) can0 245#000000004c
(1.338626) can0 020#0000072b
(1.338873) can0 0b4#00000000000000bc
(1.339112) can0 025#0ff80fff787878aa
(1.339575) can0 260#000000000000006a
(1.339752) can0 247#0600ff0000
(1.340002) can0 024#020101fe420080f0
(1.344775) can0 224#2000000001cd0008
(1.345017) can0 3b7#0000000000000008
(1.346484) can0 6c0#e40080a000000000
(1.348263) can0 1c4#00000000000000cd
(1.349004) can0 127#001000080001468f
(1.350774) can0 020#0000072b
(1.351001) can0 230#0000000400003d
(1.351235) can0 025#0ff80fff828282c8
(1.351810) can0 024#020101fe420080f0
(1.354147) can0 3a0#000000000000003d
(1.356853) can0 320#0000000000080033
(1.359613) can0 260#000000000000006a
(1.361238) can0 245#000000004c
(1.362816) can0 020#0000072b
(1.363064) can0 0b4#00000000000000bc
(1.363303) can0 025#0ff80fff787878aa
(1.363483) can0 247#0600ff0000
(1.363809) can0 024#020101fe420080f0
(1.364297) can0 361#80000000
(1.365384) can0 127#001000080001468f
(1.368972) can0 224#2000000001cd0008
(1.371689) can0 4a6#0000000024242400
(1.371930) can0 1c4#00000000000000cd
(1.374907) can0 020#0000072b
(1.375112) can0 230#0000000400003d
(1.375353) can0 025#0ff80fff787878aa
(1.375832) can0 024#020101fe420080f0
(1.379544) can0 260#000000000000006a
(1.381119) can0 2a4#00000000ab
(1.381758) can0 127#001000080001468f
(1.384787) can0 245#000000004c
(1.386846) can0 247#0600ff0000
(1.387078) can0 020#0000072b
(1.387325) can0 0b4#00000000000000bc
(1.387565) can0 025#0ff80fff787878aa
(1.387810) can0 024#020101fe41ff80ee
(1.393258) can0 224#2000000001cd0008
(1.395378) can0 1c4#00000000000000cd
(1.397229) can0 440#4202001000000000
(1.398136) can0 127#001000080001468f
(1.399218) can0 020#0000072b
(1.399450) can0 230#0000000400003d
(1.399690) can0 025#0ff80fff787878aa
(1.399929) can0 024#020001fe41ff80ed
(1.400172) can0 260#000000000000006a
(1.405348) can0 320#0000000000080033
(1.408351) can0 245#000000004c
(1.410379) can0 247#0600ff0000
(1.411324) can0 020#0000072b
(1.411571) can0 0b4#00000000000000bc
(1.411808) can0 025#0ff80fff787878aa
(1.412046) can0 024#020001fe41ff80ed
(1.414535) can0 127#001000080001468f
(1.416886) can0 498#c100000049460000
(1.417433) can0 224#2000000001cc0008
(1.418920) can0 49c#40100ca800503800
(1.419162) can0 1c4#00000000000000cd
(1.419779) can0 260#000000000000006a
(1.420969) can0 4a7#00006c25000500c8
(1.422231) can0 620#1000fffff0000000
(1.423015) can0 4ad#0000005d9d000460
(1.423254) can0 3a1#0000002040000000
(1.423420) can0 020#0000072b
(1.423653) can0 230#0000000400003d
(1.423901) can0 024#020001fe41ff80ed
(1.424137) can0 025#0ff80fff787878aa
(1.428810) can0 361#80000000
(1.429524) can0 2a4#00000000ab
(1.430910) can0 127#001000080001468f
(1.431878) can0 245#000000004c
(1.432255) can0 63b#16003a6400000127
(1.433923) can0 247#0600ff0000
(1.435448) can0 020#0000072b
(1.435690) can0 0b4#00000000000000bc
(1.435930) can0 024#020001fe41ff80ed
(1.436170) can0 025#0ff80fff787878aa
(1.436409) can0 3b6#8064011000000100
(1.439565) can0 260#000000000000006a
(1.441629) can0 224#2000000001cd0008
(1.442458) can0 1c4#00000000000000cd
(1.447297) can0 127#0010000800014790
(1.447575) can0 020#0000072b
(1.447807) can0 230#0000000400003d
(1.448044) can0 025#0ff80fff787878aa
(1.448797) can0 024#020001fe41fe80ec
(1.453718) can0 320#0000000000080033
(1.455418) can0 245#000000004c
(1.456155) can0 3a0#000000000000003d
(1.457483) can0 247#0600ff0000
(1.459533) can0 260#000000000000006a
(1.459730) can0 020#0000072b
(1.459991) can0 0b4#00000000000000bc
(1.460231) can0 025#0ff80fff828282c8
(1.460795) can0 024#020001fe41fe80ec
(1.463668) can0 127#0010000800014790
(1.465973) can0 224#2000000001cc0008
(1.466216) can0 1c4#00000000000000cd
(1.466788) can0 4ac#98000000c70003a0
(1.471883) can0 020#0000072b
(1.472082) can0 230#0000000400003d
(1.472325) can0 025#0ff80fff787878aa
(1.472790) can0 024#020001fe41fe80ec
(1.478123) can0 2a4#00000000ab
(1.478954) can0 245#000000004c
(1.479574) can0 260#000000000000006a
(1.480032) can0 127#0010000800014790
(1.481020) can0 247#0600ff0000
(1.484206) can0 020#0000072b
(1.484446) can0 0b4#00000000000000bc
(1.484681) can0 025#0ff80fff787878aa
(1.484933) can0 024#020001fe41fe80ec
(1.486154) can0 3b0#00a0004f00000000
(1.489319) can0 442#4d02000002000000
(1.489577) can0 1c4#00000000000000cd
(1.490362) can0 224#2000000001cc0008
(1.493289) can0 361#80000000
(1.494448) can0 4c8#0900000000000000
(1.496436) can0 127#0010000800014790
(1.496567) can0 020#0000072b
(1.496796) can0 230#0000000400003d
(1.497044) can0 025#0ff80fff787878aa
(1.497794) can0 024#020001fe41fe80ec
(1.499520) can0 260#000000000000006a
(1.502509) can0 245#000000004c
(1.502754) can0 320#0000000000080033
(1.504535) can0 247#0600ff0000
(1.508592) can0 020#0000072b
(1.508834) can0 0b4#00000000000000bc
(1.509072) can0 025#0ff80fff787878aa
(1.509776) can0 024#020001fe41fe80ec
(1.512776) can0 127#0010000800014790
(1.513124) can0 1c4#00000000000000cd
(1.514292) can0 394#0000
(1.514790) can0 224#2000000001cc0008
(1.519514) can0 260#000000000000006a
(1.520720) can0 020#0000072b
(1.520949) can0 230#0000000400003d
(1.521192) can0 025#0ff80fff828282c8
(1.521768) can0 024#020001fe41ff80ed
(1.523032) can0 499#d3002500000007f0
(1.524027) can0 49a#0013260059602278
(1.526037) can0 245#000000004c
(1.526968) can0 2a4#00000000ab
(1.527212) can0 49b#00a0242000004000
(1.528080) can0 247#0600ff0000
(1.528330) can0 3f9#702c5602000000f8
(1.529155) can0 127#0010000800014790
(1.529392) can0 49d#5f5f01cc971de657
(1.530082) can0 353#0000
(1.531225) can0 4a8#0006600000000004
(1.532221) can0 4ae#008000c001280248
(1.532885) can0 020#0000072b
(1.533135) can0 0b4#00000000000000bc
(1.533372) can0 025#0ff80fff787878aa
(1.533762) can0 024#020001fe41ff80ed
(1.534144) can0 380#0000000000003100
(1.534387) can0 4af#0042d00000000000
(1.536656) can0 1c4#00000000000000cd
(1.539229) can0 224#2000000001cd0008
(1.539530) can0 260#000000000000006a
(1.545227) can0 020#0000072b
(1.545438) can0 230#0000000400003d
(1.545676) can0 025#0ff80fff787878aa
(1.545920) can0 024#020001fe41ff80ed
(1.546164) can0 127#0010000800014790
(1.549597) can0 245#000000004c
(1.551411) can0 320#0000000000080033
(1.551678) can0 247#0600ff0000
(1.552173) can0 3a0#000000000000003d
(1.557290) can0 020#0000072b
(1.557533) can0 0b4#00000000000000bc
(1.557768) can0 025#0ff80fff787878aa
(1.558011) can0 024#020001fe41ff80ed
(1.558178) can0 361#80000000
(1.559521) can0 260#000000000000006a
(1.560245) can0 1c4#00000000000000cd
(1.561932) can0 127#0010000800014790
(1.563530) can0 224#2000000001cc0008
(1.569464) can0 020#0000072b
(1.569662) can0 230#0000000400003d
(1.569902) can0 024#020101fe41ff80ee
(1.570142) can0 025#0ff80fff787878aa
(1.573141) can0 245#000000004c
(1.575200) can0 247#0600ff0000
(1.575538) can0 2a4#00000000ab
(1.578320) can0 127#0010000800014790
(1.579513) can0 260#000000000000006a
(1.581598) can0 020#0000072b
(1.581843) can0 0b4#00000000000000bc
(1.582084) can0 025#0ff80fff787878aa
(1.582766) can0 024#020101fe420080f0
(1.583779) can0 1c4#00000000000000cd
(1.585524) can0 44d#5c02001101000000
(1.587744) can0 224#2000000001cd0008
(1.593708) can0 020#0000072b
(1.593924) can0 230#0000000400003d
(1.594156) can0 025#0ff80fff828282c8
(1.594698) can0 127#0010000800014790
(1.594939) can0 024#020001fe420080ef
(1.596707) can0 245#000000004c
(1.598734) can0 247#0600ff0000
(1.599558) can0 260#000000000000006a
(1.599869) can0 320#0000000000080033
(1.600113) can0 4a0#06b7000000000000
(1.600361) can0 4a1#0000807f80a0d202
(1.600586) can0 4a2#530000a94656bc03
(1.605750) can0 020#0000072b
(1.605989) can0 0b4#00000000000000bc
(1.606224) can0 025#0ff80fff787878aa
(1.606777) can0 024#020001fe420080ef
(1.607347) can0 1c4#00000000000000cd
(1.611073) can0 127#0010000800014790
(1.611957) can0 224#2000000001cd0008
(1.617860) can0 020#0000072b
(1.618070) can0 230#0000000400003d
(1.618307) can0 025#0ff80fff787878aa
(1.618771) can0 024#020001fe420080ef
(1.619475) can0 260#000000000000006a
(1.620240) can0 245#000000004c
(1.622274) can0 247#0600ff0000
(1.622442) can0 361#80000000
(1.624039) can0 2a4#00000000ab
(1.627450) can0 127#0010000800014790
(1.630120) can0 020#0000072b
(1.630357) can0 0b4#00000000000000bc
(1.630593) can0 025#0ff80fff787878aa
(1.630833) can0 024#020001fe420080ef
(1.631078) can0 1c4#00000000000000cd
(1.632845) can0 3b9#690000
(1.636265) can0 224#2000000001cd0008
(1.639508) can0 260#000000000000006a
(1.642219) can0 020#0000072b
(1.642443) can0 230#0000000400003d
(1.642672) can0 025#0ff80fff787878aa
(1.642913) can0 024#020001fe420080ef
(1.643827) can0 127#001000080001468f
(1.644016) can0 245#000000004c
(1.645847) can0 247#0600ff0000
(1.646337) can0 6c0#e40080a000000000
(1.648385) can0 320#0000000000080033
(1.648622) can0 3b7#0000000000000008
(1.654179) can0 3a0#000000000000003d
(1.654329) can0 020#0000072b
(1.654588) can0 0b4#00000000000000bc
(1.654833) can0 024#020001fe420080ef
(1.655070) can0 025#0ff80fff787878aa
(1.655316) can0 1c4#00000000000000cd
(1.659554) can0 260#000000000000006a
(1.660207) can0 127#001000080001468f
(1.660482) can0 224#2000000001cc0008
(1.666337) can0 020#0000072b
(1.666560) can0 230#0000000400003d
(1.666791) can0 024#020001fe420080ef
(1.667029) can0 025#0ff80fff787878aa
(1.667307) can0 245#000000004c
(1.669373) can0 247#0600ff0000
(1.672460) can0 2a4#00000000ab
(1.676582) can0 127#001000080001468f
(1.677996) can0 1c4#00000000000000cd
(1.678488) can0 020#0000072b
(1.678734) can0 0b4#00000000000000bc
(1.678970) can0 025#0ff80fff787878aa
(1.679514) can0 260#000000000000006a
(1.679761) can0 024#020001fe420080ef
(1.684633) can0 224#2000000001cd0008
(1.686769) can0 361#80000000
(1.688441) can0 45c#4002002101000000
(1.690609) can0 020#0000072b
(1.690835) can0 230#0000000400003d
(1.691072) can0 025#0ff80fff828282c8
(1.691256) can0 245#000000004c
(1.691754) can0 024#020001fe420080ef
(1.692967) can0 127#0010000800014790
(1.693142) can0 247#0600ff0000
(1.696761) can0 320#0000000000080033
(1.699471) can0 260#000000000000006a
(1.701554) can0 1c4#00000000000000cd
(1.702723) can0 020#0000072b
(1.702969) can0 0b4#00000000000000bc
(1.703216) can0 025#0ff80fff787878aa
(1.703757) can0 024#020101fe420080f0
(1.708895) can0 224#2000000001cd0008
(1.709333) can0 127#0010000800014790
(1.714413) can0 245#000000004c
(1.714823) can0 020#0000072b
(1.715059) can0 230#0000000400003d
(1.715289) can0 025#0ff80fff787878aa
(1.715750) can0 024#020101fe420080f0
(1.716448) can0 247#0600ff0000
(1.719520) can0 260#000000000000006a
(1.721031) can0 2a4#00000000ab
(1.722150) can0 620#1000fffff0000000
(1.725095) can0 1c4#00000000000000cd
(1.725698) can0 127#0010000800014790
(1.727075) can0 020#0000072b
(1.727323) can0 0b4#00000000000000bc
(1.727561) can0 025#0ff80fff787878aa
(1.727801) can0 024#020101fe420080f0
(1.729929) can0 4c6#0700020000000000
(1.733244) can0 224#2000000001cd0008
(1.737924) can0 245#000000004c
(1.739024) can0 3bc#0020000000000000
(1.739195) can0 020#0000072b
(1.739426) can0 230#0000000400003d
(1.739664) can0 025#0ff80fff787878aa
(1.739905) can0 024#020101fe420080f0
(1.740092) can0 247#0600ff0000
(1.740341) can0 260#000000000000006a
(1.740989) can0 3bb#01000000
(1.742077) can0 127#0010000800014790
(1.743097) can0 399#00000000000000
(1.745439) can0 320#0000000000080033
(1.748645) can0 1c4#00000000000000cd
(1.751229) can0 361#80000000
(1.751401) can0 020#0000072b
(1.751647) can0 0b4#00000000000000bc
(1.751887) can0 024#020101fe420080f0
(1.752125) can0 025#0ff80fff787878aa
(1.753159) can0 3a0#000000000000003d
(1.757566) can0 224#2000000001cd0008
(1.758456) can0 127#0010000800014790
(1.759480) can0 260#000000000000006a
(1.761469) can0 245#000000004c
(1.763528) can0 247#0600ff0000
(1.763699) can0 020#0000072b
(1.763929) can0 230#0000000400003d
(1.764171) can0 025#0ff80fff828282c8
(1.764719) can0 024#020101fe420080f0
(1.769684) can0 2a4#00000000ab
(1.772184) can0 1c4#00000000000000cd
(1.774833) can0 127#0010000800014790
(1.775661) can0 020#0000072b
(1.775910) can0 0b4#00000000000000bc
(1.776148) can0 025#0ff80fff787878aa
(1.776720) can0 024#020101fe41ff80ee
(1.777904) can0 3f9#702c5602000000f8
(1.779412) can0 610#20000064c0fffd40
(1.779700) can0 260#000000000000006a
(1.779854) can0 353#0000
(1.781887) can0 224#2000000001cd0008
(1.785036) can0 245#000000004c
(1.785384) can0 3d3#0000
(1.787062) can0 247#0600ff0000
(1.787306) can0 440#4202001000000000
(1.787872) can0 020#0000072b
(1.788102) can0 230#0000000400003d
(1.788340) can0 025#0ff80fff787878aa
(1.788717) can0 024#020101fe41ff80ee
(1.791213) can0 127#0010000800014790
(1.794076) can0 320#0000000000080033
(1.795751) can0 1c4#00000000000000cd
(1.799416) can0 260#000000000000006a
(1.800030) can0 020#0000072b
(1.800278) can0 0b4#00000000000000bc
(1.800516) can0 025#0ff80fff787878aa
(1.800759) can0 024#020101fe41ff80ee
(1.805613) can0 633#8100000000000000
(1.806111) can0 224#2000000001cd0008
(1.807591) can0 127#0010000800014790
(1.808569) can0 245#000000004c
(1.810606) can0 247#0600ff0000
(1.812055) can0 020#0000072b
(1.812285) can0 230#0000000400003d
(1.812523) can0 025#0ff80fff787878aa
(1.812765) can0 024#020101fe41ff80ee
(1.814175) can0 394#0000
(1.815705) can0 361#80000000
(1.818143) can0 2a4#00000000ab
(1.819289) can0 1c4#00000000000000cd
(1.819537) can0 260#000000000000006a
(1.823968) can0 127#0010000800014790
(1.824138) can0 020#0000072b
(1.824387) can0 0b4#00000000000000bc
(1.824625) can0 025#0ff80fff787878aa
(1.824867) can0 024#020101fe41ff80ee
(1.830241) can0 224#2000000001cd0008
(1.832101) can0 245#000000004c
(1.834172) can0 247#0600ff0000
(1.836136) can0 020#0000072b
(1.836367) can0 230#0000000400003d
(1.836605) can0 025#0ff80fff787878aa
(1.836848) can0 024#020101fe41ff80ee
(1.839457) can0 260#000000000000006a
(1.840349) can0 127#0010000800014790
(1.842363) can0 320#0000000000080033
(1.842855) can0 1c4#00000000000000cd
(1.848255) can0 020#0000072b
(1.848506) can0 0b4#00000000000000bc
(1.848746) can0 024#020101fe41ff80ee
(1.848989) can0 025#0ff80fff787878aa
(1.854374) can0 224#2000000001cd0008
(1.855175) can0 3a0#000000000000003d
(1.855649) can0 245#000000004c
(1.856727) can0 127#0010000800014790
(1.857706) can0 247#0600ff0000
(1.859450) can0 260#000000000000006a
(1.860344) can0 020#0000072b
(1.860575) can0 230#0000000400003d
(1.860817) can0 024#020101fe41ff80ee
(1.861055) can0 025#0ff80fff787878aa
(1.866393) can0 1c4#00000000000000cd
(1.866583) can0 2a4#00000000ab
(1.872086) can0 621#1100000000000000
(1.872424) can0 020#0000072b
(1.872712) can0 0b4#00000000000000bc
(1.872932) can0 024#020101fe41ff80ee
(1.873159) can0 025#0ff80fff787878aa
(1.873407) can0 127#0010000800014790
(1.878536) can0 224#2000000001cd0008
(1.879142) can0 442#4d02000002000000
(1.879314) can0 245#000000004c
(1.879572) can0 260#000000000000006a
(1.880218) can0 361#80000000
(1.881250) can0 247#0600ff0000
(1.884506) can0 020#0000072b
(1.884734) can0 230#0000000400003d
(1.884972) can0 025#0ff80fff787878aa
(1.885718) can0 024#020101fe41ff80ee
(1.886152) can0 3b1#0000020a00080000
(1.887095) can0 623#1900000000000000
(1.889506) can0 127#0010000800014790
(1.889972) can0 1c4#00000000000000cd
(1.890672) can0 320#0000000000080033
(1.890927) can0 38a#0000000000
(1.896607) can0 020#0000072b
(1.896836) can0 0b4#00000000000000bc
(1.897071) can0 025#0ff80fff787878aa
(1.897715) can0 024#020101fe41ff80ee
(1.899487) can0 260#000000000000006a
(1.902088) can0 624#1a00574949400000
(1.902791) can0 224#2000000001cd0008
(1.902969) can0 245#000000004c
(1.904797) can0 247#0600ff0000
(1.905876) can0 127#0010000800014790
(1.908684) can0 020#0000072b
(1.908901) can0 230#0000000400003d
(1.909144) can0 025#0ff80fff828282c8
(1.909388) can0 614#2900003000000000
(1.909714) can0 024#020101fe41ff80ee
(1.913513) can0 1c4#00000000000000cd
(1.914803) can0 2a4#00000000ab
(1.916598) can0 498#c100000049460000
(1.917090) can0 638#13001f0000000000
(1.918653) can0 49c#40100ca800503800
(1.919401) can0 260#000000000000006a
(1.920679) can0 4a7#00006c25000500c8
(1.920860) can0 020#0000072b
(1.921101) can0 0b4#00000000000000bc
(1.921339) can0 025#0ff80fff787878aa
(1.921705) can0 024#020101fe41ff80ee
(1.922252) can0 127#0010000800014790
(1.922730) can0 4ad#0000005d9d000460
(1.926289) can0 245#000000004c
(1.926924) can0 224#2000000001cd0008
(1.928361) can0 247#0600ff0000
(1.932110) can0 63b#16003a640000012c
(1.932920) can0 020#0000072b
(1.933149) can0 230#0000000400003d
(1.933388) can0 025#0ff80fff787878aa
(1.933696) can0 024#020101fe41ff80ee
(1.937092) can0 1c4#00000000000000cd
(1.938637) can0 127#0010000800014790
(1.939197) can0 320#0000000000080033
(1.939442) can0 260#000000000000006a
(1.942076) can0 63c#98004e4850130060
(1.944727) can0 361#80000000
(1.945093) can0 020#0000072b
(1.945347) can0 0b4#00000000000000bc
(1.945583) can0 025#0ff80fff787878aa
(1.945807) can0 024#020101fe41ff80ee
(1.946252) can0 6c0#e40080a000000000
(1.949854) can0 245#000000004c
(1.951309) can0 224#2000000001cd0008
(1.951559) can0 3b7#0000000000000008
(1.951884) can0 247#0600ff0000
(1.952127) can0 63d#99004348584e4200
(1.954204) can0 3a0#000000000000003d
(1.955012) can0 127#0010000800014790
(1.957311) can0 020#0000072b
(1.957519) can0 230#0000000400003d
(1.957762) can0 024#020101fe41ff80ee
(1.958004) can0 025#0ff80fff787878aa
(1.958243) can0 4c3#0300000100000000
(1.959495) can0 260#000000000000006a
(1.960626) can0 1c4#00000000000000cd
(1.963481) can0 2a4#00000000ab
(1.966674) can0 4ac#18004000c90003a0
(1.967067) can0 680#d800010000000000
(1.969479) can0 020#0000072b
(1.969722) can0 0b4#00000000000000bc
(1.969970) can0 025#0ff80fff828282c8
(1.970685) can0 024#020101fe41ff80ee
(1.971382) can0 127#0010000800014790
(1.973393) can0 245#000000004c
(1.975418) can0 247#0600ff0000
(1.975663) can0 224#2000000001cd0008
(1.975901) can0 44d#5c02001101000000
(1.976149) can0 4c1#0100000200000000
(1.979402) can0 260#000000000000006a
(1.981540) can0 020#0000072b
(1.981767) can0 230#0000000400003d
(1.982007) can0 025#0ff80fff787878aa
(1.982684) can0 024#020101fe41ff80ee
(1.984184) can0 1c4#00000000000000cd
(1.987787) can0 127#0010000800014790
(1.988015) can0 320#0000000000080033
(1.993822) can0 020#0000072b
(1.994045) can0 0b4#00000000000000bc
(1.994284) can0 025#0ff80fff787878aa
(1.994696) can0 024#020101fe41ff80ee
(1.996942) can0 245#000000004c
(1.998991) can0 247#0600ff0000
(1.999409) can0 260#000000000000006a
(1.999979) can0 224#2000000001cd0008
(2.004158) can0 127#0010000800014790
(2.005937) can0 020#0000072b
(2.006154) can0 230#0000000400003d
(2.006391) can0 025#0ff80fff787878aa
(2.006684) can0 024#020101fe41ff80ee
(2.007733) can0 1c4#00000000000000cd
(2.009207) can0 361#80000000
(2.012138) can0 2a4#00000000ab
(2.018152) can0 020#0000072b
(2.018367) can0 0b4#00000000000000bc
(2.018606) can0 025#0ff80fff787878aa
(2.018848) can0 024#020101fe420080f0
(2.019455) can0 260#000000000000006a
(2.020527) can0 127#0010000800014790
(2.020732) can0 245#000000004c
(2.022080) can0 620#1000fffff0000000
(2.022543) can0 247#0600ff0000
(2.022789) can0 499#d3002500000007f0
(2.023588) can0 49a#0013260059602278
(2.024291) can0 224#2000000001cd0008
(2.026657) can0 39b#0004001000
(2.026887) can0 49b#00a0242000004000
(2.027706) can0 3f9#702c5602000000f8
(2.028705) can0 49d#5f5f01cc971de656
(2.029655) can0 353#0000
(2.030294) can0 020#0000072b
(2.030520) can0 230#0000000400003d
(2.030758) can0 024#020101fe420080f0
(2.031002) can0 025#0ff80fff787878aa
(2.031242) can0 4a8#0006600000000004
(2.031490) can0 1c4#00000000000000cd
(2.031780) can0 4ae#008000c001280248
(2.033852) can0 4af#0042d00000000000
(2.036386) can0 320#0000000000080033
(2.036912) can0 127#0010000800014790
(2.039404) can0 260#000000000000006a
(2.042388) can0 020#0000072b
(2.042610) can0 0b4#00000000000000bc
(2.042854) can0 024#020101fe420080f0
(2.043099) can0 025#0ff80fff787878aa
(2.044022) can0 245#000000004c
(2.046075) can0 247#0600ff0000
(2.048480) can0 224#2000000001cd0008
(2.053296) can0 127#0010000800014790
(2.053517) can0 38b#00000000ac1900
(2.054406) can0 020#0000072b
(2.054634) can0 230#0000000400003d
(2.054898) can0 024#020101fe420080f0
(2.055116) can0 025#0ff80fff787878aa
(2.055358) can0 1c4#00000000000000cd
(2.055607) can0 421#0000000000000000
(2.056203) can0 3a0#000000000000003d
(2.059383) can0 260#000000000000006a
(2.060506) can0 2a4#00000000ab
(2.066461) can0 020#0000072b
(2.066705) can0 0b4#00000000000000bc
(2.066938) can0 025#0ff80fff787878aa
(2.067583) can0 245#000000004c
(2.067823) can0 024#020101fe420080f0
(2.069686) can0 127#0010000800014790
(2.069848) can0 247#0600ff0000
(2.072683) can0 224#2000000001cd0008
(2.073688) can0 361#80000000
(2.076273) can0 45c#4002002101000000
(2.078407) can0 1c4#00000000000000cd
(2.078556) can0 020#0000072b
(2.078793) can0 230#0000000400003d
(2.079042) can0 025#0ff80fff828282c8
(2.079415) can0 260#000000000000006a
(2.079681) can0 024#020101fe420080f0
(2.080858) can0 630#1700000000000000
(2.084773) can0 320#0000000000080033
(2.086045) can0 127#0010000800014790
(2.089240) can0 613#2800000000000000
(2.089979) can0 632#8000000000000000
(2.090764) can0 020#0000072b
(2.091016) can0 0b4#00000000000000bc
(2.091246) can0 025#0ff80fff787878aa
(2.091438) can0 245#000000004c
(2.091681) can0 024#020101fe420080f0
(2.093170) can0 247#0600ff0000
(2.096870) can0 224#2000000001cd0008
(2.099192) can0 635#8300000000000000
(2.099434) can0 260#000000000000006a
(2.099671) can0 615#2a00760a00000000
(2.101951) can0 1c4#00000000000000cd
(2.102183) can0 626#1c00000000000000
(2.102423) can0 127#0010000800014790
(2.102855) can0 020#0000072b
(2.103087) can0 230#0000000400003d
(2.103327) can0 025#0ff80fff787878aa
(2.103570) can0 4a0#06b7000000000000
(2.103811) can0 024#020101fe420080f0
(2.104051) can0 4a1#0000807f80a0d202
(2.104284) can0 4a2#530000a94656bc03
(2.108883) can0 2a4#00000000ab
(2.114107) can0 394#0000
(2.114654) can0 245#000000004c
(2.114881) can0 020#0000072b
(2.115129) can0 0b4#00000000000000bc
(2.115372) can0 025#0ff80fff787878aa
(2.115673) can0 024#020101fe420080f0
(2.116719) can0 247#0600ff0000
(2.118804) can0 127#0010000800014790
(2.119456) can0 260#000000000000006a
(2.121143) can0 224#2000000001cd0008
(2.125513) can0 1c4#00000000000000cd
(2.127023) can0 020#0000072b
(2.127248) can0 230#0000000400003d
(2.127488) can0 025#0ff80fff787878aa
(2.127729) can0 024#020101fe420080f0
(2.129210) can0 611#21000012000184e0
(2.133190) can0 320#0000000000080033
(2.135188) can0 127#0010000800014790
(2.138201) can0 245#000000004c
(2.138365) can0 361#80000000
(2.139110) can0 020#0000072b
(2.139361) can0 0b4#00000000000000bc
(2.139613) can0 025#0ff80fff787878aa
(2.139849) can0 024#020101fe420080f0
(2.140093) can0 260#000000000000006a
(2.140272) can0 247#0600ff0000
(2.145291) can0 224#2000000001cd0008
(2.149059) can0 1c4#00000000000000cd
(2.151257) can0 020#0000072b
(2.151478) can0 230#0000000400003d
(2.151713) can0 024#020101fe420080f0
(2.151951) can0 025#0ff80fff787878aa
(2.152196) can0 127#0010000800014790
(2.152445) can0 3a0#000000000000003d
(2.157278) can0 2a4#00000000ab
(2.159349) can0 260#000000000000006a
(2.161764) can0 245#000000004c
(2.163319) can0 020#0000072b
(2.163568) can0 0b4#00000000000000bc
(2.163801) can0 024#020101fe420080f0
(2.164037) can0 025#0ff80fff787878aa
(2.164232) can0 247#0600ff0000
(2.167965) can0 127#0010000800014790
(2.169496) can0 224#2000000001cd0008
(2.171776) can0 4a6#0000000024242400
(2.172614) can0 1c4#00000000000000cd
(2.175394) can0 020#0000072b
(2.175610) can0 230#0000000400003d
(2.175858) can0 024#020101fe420080f0
(2.176102) can0 025#0ff80fff787878aa
(2.177022) can0 440#4202001000000000
(2.179353) can0 260#000000000000006a
(2.181616) can0 320#0000000000080033
(2.182218) can0 383#1100010000000000
(2.182512) can0 4dc#1d00001000000000
(2.184324) can0 127#0010000800014790
(2.185303) can0 245#000000004c
(2.187355) can0 247#0600ff0000
(2.187511) can0 020#0000072b
(2.187774) can0 0b4#00000000000000bc
(2.188020) can0 025#0ff80fff787878aa
(2.188661) can0 024#020101fe41ff80ee
(2.193756) can0 224#2000000001cd0008
(2.196162) can0 1c4#00000000000000cd
(2.199395) can0 260#000000000000006a
(2.199750) can0 020#0000072b
(2.199984) can0 230#0000000400003d
(2.200223) can0 025#0ff80fff828282c8
(2.200661) can0 024#020101fe41ff80ee
(2.200908) can0 127#0010000800014790
(2.202695) can0 361#80000000
(2.203695) can0 423#00
(2.205850) can0 2a4#00000000ab
(2.208825) can0 245#000000004c
(2.210903) can0 247#0600ff0000
(2.211835) can0 020#0000072b
(2.212082) can0 0b4#00000000000000bc
(2.212323) can0 025#0ff80fff787878aa
(2.212649) can0 024#020101fe41ff80ee
(2.217086) can0 127#0010000800014790
(2.218116) can0 224#2000000001cd0008
(2.219383) can0 260#000000000000006a
(2.219713) can0 1c4#00000000000000cd
(2.224119) can0 020#0000072b
(2.224343) can0 230#0000000400003d
(2.224577) can0 025#0ff80fff787878aa
(2.224822) can0 024#020101fe41ff80ee
(2.230279) can0 320#0000000000080033
(2.232393) can0 245#000000004c
(2.233451) can0 127#0010000800014790
(2.234430) can0 247#0600ff0000
(2.236261) can0 020#0000072b
(2.236501) can0 0b4#00000000000000bc
(2.236739) can0 024#020101fe41ff80ee
(2.236976) can0 025#0ff80fff787878aa
(2.239365) can0 260#000000000000006a
(2.242479) can0 224#2000000001cd0008
(2.243251) can0 1c4#00000000000000cd
(2.246083) can0 6c0#e40080a000000000
(2.248389) can0 020#0000072b
(2.248622) can0 230#0000000400003d
(2.248853) can0 024#020101fe41ff80ee
(2.249093) can0 025#0ff80fff787878aa
(2.249828) can0 127#0010000800014790
(2.254248) can0 3a0#000000000000003d
(2.254601) can0 2a4#00000000ab
(2.254846) can0 3b7#0000000000000008
(2.255948) can0 245#000000004c
(2.257964) can0 247#0600ff0000
(2.259378) can0 260#000000000000006a
(2.260657) can0 020#0000072b
(2.260896) can0 0b4#00000000000000bc
(2.261134) can0 025#0ff80fff828282c8
(2.261652) can0 024#020101fe41ff80ee
(2.266213) can0 127#0010000800014790
(2.266753) can0 224#2000000001cd0008
(2.267002) can0 1c4#00000000000000cd
(2.267235) can0 420#00000000fdfe80a7
(2.267390) can0 361#80000000
(2.269179) can0 442#4d02000002000000
(2.272728) can0 020#0000072b
(2.272954) can0 230#0000000400003d
(2.273189) can0 025#0ff80fff787878aa
(2.273666) can0 024#020101fe41ff80ee
(2.277515) can0 3f9#702c5602000000f8
(2.278858) can0 320#0000000000080033
(2.279247) can0 610#20000064c0fffd40
(2.279491) can0 260#000000000000006a
(2.279684) can0 245#000000004c
(2.279814) can0 353#0000
(2.280071) can0 4dd#1e00110200000000
(2.281505) can0 247#0600ff0000
(2.282585) can0 127#0010000800014790
(2.284764) can0 020#0000072b
(2.285013) can0 0b4#00000000000000bc
(2.285244) can0 025#0ff80fff787878aa
(2.285648) can0 024#020101fe41ff80ee
(2.287027) can0 622#1200883000000000
(2.290368) can0 1c4#00000000000000cd
(2.290900) can0 224#2000000001cd0008
(2.296828) can0 020#0000072b
(2.297023) can0 230#0000000400003d
(2.297266) can0 025#0ff80fff787878aa
(2.297640) can0 024#020101fe41ff80ee
(2.298974) can0 127#0010000800014790
(2.299305) can0 260#000000000000006a
(2.302975) can0 2a4#00000000ab
(2.303144) can0 245#000000004c
(2.305073) can0 247#0600ff0000
(2.309023) can0 020#0000072b
(2.309237) can0 0b4#00000000000000bc
(2.309484) can0 025#0ff80fff787878aa
(2.309730) can0 024#020101fe41ff80ee
(2.309851) can0 3d3#0000
(2.313927) can0 1c4#00000000000000cd
(2.315157) can0 224#2000000001cd0008
(2.315394) can0 127#0010000800014790
(2.319577) can0 260#000000000000006a
(2.321126) can0 020#0000072b
(2.321350) can0 230#0000000400003d
(2.321591) can0 025#0ff80fff787878aa
(2.321830) can0 024#020101fe41ff80ee
(2.322081) can0 620#1000fffff0000000
(2.326551) can0 245#000000004c
(2.327234) can0 320#0000000000080033
(2.328605) can0 247#0600ff0000
(2.331730) can0 127#0010000800014790
(2.331893) can0 361#80000000
(2.333263) can0 020#0000072b
(2.333475) can0 0b4#00000000000000bc
(2.333726) can0 024#020101fe41ff80ee
(2.333968) can0 025#0ff80fff787878aa
(2.337472) can0 1c4#00000000000000cd
(2.339296) can0 260#000000000000006a
(2.339543) can0 224#2000000001cd0008
(2.345292) can0 020#0000072b
(2.345512) can0 230#0000000400003d
(2.345745) can0 024#020101fe41ff80ee
(2.345989) can0 025#0ff80fff787878aa
(2.348105) can0 127#001000080001468f
(2.350120) can0 245#000000004c
(2.351422) can0 2a4#00000000ab
(2.352135) can0 247#0600ff0000
(2.353240) can0 3a0#000000000000003d
(2.357387) can0 020#0000072b
(2.357619) can0 0b4#00000000000000bc
(2.357851) can0 025#0ff80fff787878aa
(2.358632) can0 024#020101fe41ff80ee
(2.359318) can0 260#000000000000006a
(2.361037) can0 1c4#00000000000000cd
(2.363559) can0 224#2000000001cd0008
(2.364476) can0 127#001000080001468f
(2.365889) can0 44d#5c02001101000000
(2.369484) can0 020#0000072b
(2.369707) can0 230#0000000400003d
(2.369940) can0 025#0ff80fff787878aa
(2.370640) can0 024#020101fe41ff80ee
(2.373658) can0 245#000000004c
(2.375650) can0 320#0000000000080033
(2.375798) can0 247#0600ff0000
(2.379347) can0 260#000000000000006a
(2.380854) can0 127#001000080001468f
(2.381634) can0 020#0000072b
(2.381894) can0 0b4#00000000000000bc
(2.382127) can0 025#0ff80fff828282c8
(2.382624) can0 024#020101fe420080f0
(2.384574) can0 1c4#00000000000000cd
(2.387695) can0 224#2000000001cd0008
(2.393687) can0 020#0000072b
(2.393910) can0 230#0000000400003d
(2.394144) can0 025#0ff80fff787878aa
(2.394638) can0 024#020101fe420080f0
(2.396176) can0 361#80000000
(2.397221) can0 127#001000080001468f
(2.397410) can0 245#000000004c
(2.399254) can0 247#0600ff0000
(2.399481) can0 260#000000000000006a
(2.399798) can0 2a4#00000000ab
(2.405717) can0 020#0000072b
(2.405965) can0 0b4#00000000000000bc
(2.406204) can0 025#0ff80fff787878aa
(2.406604) can0 024#020101fe420080f0
(2.408120) can0 1c4#00000000000000cd
(2.411898) can0 224#2000000001cd0008
(2.413593) can0 127#001000080001468f
(2.414229) can0 394#0000
(2.416304) can0 498#c100000049460000
(2.417858) can0 020#0000072b
(2.418091) can0 230#0000000400003d
(2.418329) can0 025#0ff80fff787878aa
(2.418570) can0 49c#40100ca800503800
(2.418810) can0 024#020101fe420080f0
(2.419261) can0 260#000000000000006a
(2.420394) can0 4a7#00006c25000500c8
(2.420716) can0 245#000000004c
(2.422448) can0 4ad#0000005d9d000460
(2.422778) can0 247#0600ff0000
(2.424127) can0 320#0000000000080033
(2.425244) can0 3a1#0000002040000000
(2.429991) can0 127#0010000800014790
(2.430144) can0 020#0000072b
(2.430393) can0 0b4#00000000000000bc
(2.430637) can0 024#020101fe420080f0
(2.430872) can0 025#0ff80fff787878aa
(2.431656) can0 1c4#00000000000000cd
(2.431955) can0 63b#16003a6400000131
(2.436138) can0 3b6#8064011000000100
(2.436380) can0 224#2000000001cd0008
(2.439335) can0 260#000000000000006a
(2.442247) can0 020#0000072b
(2.442475) can0 230#0000000400003d
(2.442717) can0 024#020101fe420080f0
(2.442955) can0 025#0ff80fff787878aa
(2.444271) can0 245#000000004c
(2.446361) can0 127#0010000800014790
(2.446552) can0 247#0600ff0000
(2.448458) can0 2a4#00000000ab
(2.454525) can0 020#0000072b
(2.454769) can0 0b4#00000000000000bc
(2.455002) can0 025#0ff80fff828282c8
(2.455250) can0 1c4#00000000000000cd
(2.455495) can0 3a0#000000000000003d
(2.455739) can0 024#020101fe420080f0
(2.459297) can0 260#000000000000006a
(2.460733) can0 224#2000000001cd0008
(2.460867) can0 361#80000000
(2.462749) can0 127#0010000800014790
(2.466607) can0 4ac#28006000ca0003a0
(2.466762) can0 020#0000072b
(2.467000) can0 230#0000000400003d
(2.467240) can0 025#0ff80fff787878aa
(2.467620) can0 024#020101fe420080f0
(2.467841) can0 245#000000004c
(2.468126) can0 45c#4002002101000000
(2.469870) can0 247#0600ff0000
(2.472857) can0 320#0000000000080033
(2.474120) can0 4c8#0900000000000000
(2.478786) can0 1c4#00000000000000cd
(2.478938) can0 020#0000072b
(2.479190) can0 0b4#00000000000000bc
(2.479431) can0 025#0ff80fff787878aa
(2.479671) can0 024#020101fe420080f0
(2.479918) can0 127#0010000800014790
(2.480165) can0 260#000000000000006a
(2.484968) can0 224#2000000001cd0008
(2.485255) can0 3b0#00a0004f00000000
(2.491055) can0 020#0000072b
(2.491283) can0 230#0000000400003d
(2.491517) can0 025#0ff80fff787878aa
(2.491764) can0 024#020101fe420080f0
(2.491933) can0 245#000000004c
(2.493424) can0 247#0600ff0000
(2.495554) can0 127#0010000800014790
(2.497245) can0 2a4#00000000ab
(2.499379) can0 260#000000000000006a
(2.502389) can0 1c4#00000000000000cd
(2.503181) can0 020#0000072b
(2.503427) can0 0b4#00000000000000bc
(2.503668) can0 024#020101fe420080f0
(2.503903) can0 025#0ff80fff787878aa
(2.509362) can0 224#2000000001cd0008
(2.511899) can0 127#0010000800014790
(2.514910) can0 245#000000004c
(2.515215) can0 020#0000072b
(2.515448) can0 230#0000000400003d
(2.515687) can0 024#020101fe420080f0
(2.515925) can0 025#0ff80fff787878aa
(2.516960) can0 247#0600ff0000
(2.519262) can0 260#000000000000006a
(2.521425) can0 320#0000000000080033
(2.522140) can0 499#d3002500000007f0
(2.523136) can0 49a#0013260059602278
(2.525138) can0 361#80000000
(2.525880) can0 1c4#00000000000000cd
(2.526254) can0 49b#00a0242000004000
(2.527243) can0 3f9#702c5602000000f8
(2.527400) can0 020#0000072b
(2.527659) can0 0b4#00000000000000bc
(2.527905) can0 025#0ff80fff828282c8
(2.528261) can0 127#0010000800014790
(2.528504) can0 49d#5f5f01cc971de656
(2.528742) can0 024#020101fe420080f0
(2.529185) can0 353#0000
(2.530360) can0 4a8#0006600000000004
(2.531329) can0 4ae#008000c001280248
(2.533255) can0 380#0000000000003100
(2.533501) can0 224#2000000001cd0008
(2.533750) can0 4af#0042d00000000000
(2.538478) can0 245#000000004c
(2.539257) can0 260#000000000000006a
(2.539401) can0 020#0000072b
(2.539638) can0 230#0000000400003d
(2.539882) can0 025#0ff80fff787878aa
(2.540484) can0 247#0600ff0000
(2.540739) can0 024#020101fe420080f0
(2.544655) can0 127#0010000800014790
(2.545475) can0 2a4#00000000ab
(2.545961) can0 6c0#e40080a000000000
(2.549456) can0 1c4#00000000000000cd
(2.551534) can0 020#0000072b
(2.551779) can0 0b4#00000000000000bc
(2.552014) can0 025#0ff80fff787878aa
(2.552609) can0 024#020001fe420080ef
(2.554259) can0 3a0#000000000000003d
(2.557678) can0 224#2000000001cd0008
(2.557895) can0 3b7#0000000000000008
(2.559327) can0 260#000000000000006a
(2.561024) can0 127#0010000800014790
(2.562013) can0 245#000000004c
(2.563626) can0 020#0000072b
(2.563843) can0 230#0000000400003d
(2.564084) can0 025#0ff80fff787878aa
(2.564270) can0 247#0600ff0000
(2.564601) can0 024#020001fe420080ef
(2.566926) can0 440#4202001000000000
(2.569820) can0 320#0000000000080033
(2.572997) can0 1c4#00000000000000cd
(2.575727) can0 020#0000072b
(2.575964) can0 0b4#00000000000000bc
(2.576203) can0 025#0ff80fff787878aa
(2.576590) can0 024#020001fe420080ef
(2.577399) can0 127#0010000800014790
(2.579308) can0 260#000000000000006a
(2.579550) can0 612#2700000000820000
(2.581940) can0 224#2000000001cd0008
(2.585544) can0 245#000000004c
(2.587609) can0 247#0600ff0000
(2.587916) can0 020#0000072b
(2.588148) can0 230#0000000400003d
(2.588379) can0 025#0ff80fff787878aa
(2.588623) can0 024#020101fe41ff80ee
(2.589611) can0 361#80000000
(2.593784) can0 127#0010000800014790
(2.593961) can0 2a4#00000000ab
(2.596568) can0 1c4#00000000000000cd
(2.599271) can0 260#000000000000006a
(2.600022) can0 020#0000072b
(2.600267) can0 0b4#00000000000000bc
(2.600503) can0 025#0ff80fff787878aa
(2.600748) can0 024#020101fe41ff80ee
(2.606166) can0 224#2000000001cd0008
(2.606370) can0 4a0#06b7000000000000
(2.606627) can0 4a1#0000807f80a0d202
(2.606860) can0 4a2#530000a94656bc03
(2.609076) can0 245#000000004c
(2.610168) can0 127#0010000800014790
(2.611134) can0 247#0600ff0000
(2.612106) can0 020#0000072b
(2.612334) can0 230#0000000400003d
(2.612574) can0 025#0ff80fff787878aa
(2.612827) can0 024#020101fe41ff80ee
(2.618317) can0 320#0000000000080033
(2.619289) can0 260#000000000000006a
(2.620093) can0 1c4#00000000000000cd
(2.621941) can0 620#1000fffff0000000
(2.624188) can0 020#0000072b
(2.624431) can0 0b4#00000000000000bc
(2.624670) can0 024#020101fe41ff80ee
(2.624908) can0 025#0ff80fff787878aa
(2.626545) can0 127#0010000800014790
(2.630388) can0 224#2000000001cd0008
(2.632645) can0 245#000000004c
(2.634673) can0 247#0600ff0000
(2.636353) can0 020#0000072b
(2.636575) can0 230#0000000400003d
(2.636811) can0 025#0ff80fff787878aa
(2.637595) can0 024#020101fe41ff80ee
(2.639221) can0 260#000000000000006a
(2.642418) can0 2a4#00000000ab
(2.642911) can0 127#0010000800014790
(2.643658) can0 1c4#00000000000000cd
(2.648472) can0 020#0000072b
(2.648712) can0 0b4#00000000000000bc
(2.648946) can0 025#0ff80fff828282c8
(2.649583) can0 024#020001fe41ff80ed
(2.654125) can0 361#80000000
(2.654710) can0 224#2000000001cd0008
(2.656179) can0 245#000000004c
(2.656423) can0 3a0#000000000000003d
(2.656861) can0 3b9#690000
(2.658217) can0 247#0600ff0000
(2.659239) can0 260#000000000000006a
(2.659468) can0 127#0010000800014790
(2.659710) can0 442#4d02000002000000
(2.660594) can0 020#0000072b
(2.660823) can0 230#0000000400003d
(2.661063) can0 025#0ff80fff787878aa
(2.661561) can0 024#020001fe41ff80ed
(2.666810) can0 320#0000000000080033
(2.667180) can0 1c4#00000000000000cd
(2.672726) can0 020#0000072b
(2.672972) can0 0b4#00000000000000bc
(2.673213) can0 025#0ff80fff787878aa
(2.673559) can0 024#020001fe41ff80ed
(2.675654) can0 127#0010000800014790
(2.678962) can0 224#2000000001cd0008
(2.679273) can0 260#000000000000006a
(2.679688) can0 245#000000004c
(2.681762) can0 247#0600ff0000
(2.685020) can0 020#0000072b
(2.685253) can0 230#0000000400003d
(2.685489) can0 025#0ff80fff787878aa
(2.685735) can0 024#020001fe41ff80ed
(2.689696) can0 4c6#0700020000000000
(2.690749) can0 1c4#00000000000000cd
(2.691203) can0 2a4#00000000ab
(2.692033) can0 127#0010000800014790
(2.697193) can0 020#0000072b
(2.697439) can0 0b4#00000000000000bc
(2.697684) can0 024#020001fe41ff80ed
(2.697922) can0 025#0ff80fff787878aa
(2.699218) can0 260#000000000000006a
(2.703236) can0 245#000000004c
(2.703483) can0 224#2000000001cd0008
(2.705296) can0 247#0600ff0000
(2.708411) can0 127#0010000800014790
(2.709435) can0 020#0000072b
(2.709666) can0 230#0000000400003d
(2.709908) can0 025#0ff80fff828282c8
(2.710555) can0 024#020001fe41ff80ed
(2.713933) can0 394#0000
(2.714288) can0 1c4#00000000000000cd
(2.715630) can0 320#0000000000080033
(2.718597) can0 361#80000000
(2.719190) can0 260#000000000000006a
(2.721525) can0 020#0000072b
(2.721774) can0 0b4#00000000000000bc
(2.722012) can0 025#0ff80fff787878aa
(2.722552) can0 024#020001fe41ff80ed
(2.724792) can0 127#0010000800014790
(2.726803) can0 245#000000004c
(2.727773) can0 224#2000000001cd0008
(2.728829) can0 247#0600ff0000
(2.733773) can0 020#0000072b
(2.734007) can0 230#0000000400003d
(2.734242) can0 025#0ff80fff787878aa
(2.734544) can0 024#020001fe41ff80ed
(2.737854) can0 1c4#00000000000000cd
(2.739234) can0 260#000000000000006a
(2.739820) can0 2a4#00000000ab
(2.741168) can0 127#0010000800014790
(2.745848) can0 020#0000072b
(2.746097) can0 0b4#00000000000000bc
(2.746335) can0 025#0ff80fff787878aa
(2.746579) can0 024#020001fe41ff80ed
(2.750344) can0 245#000000004c
(2.751912) can0 224#2000000001cd0008
(2.752256) can0 3a0#000000000000003d
(2.752444) can0 247#0600ff0000
(2.756013) can0 44d#5c02001101000000
(2.757548) can0 127#0010000800014790
(2.757896) can0 020#0000072b
(2.758127) can0 230#0000000400003d
(2.758365) can0 025#0ff80fff787878aa
(2.758609) can0 024#020001fe41ff80ed
(2.759211) can0 260#000000000000006a
(2.761393) can0 1c4#00000000000000cd
(2.762683) can0 3bc#0020000000000000
(2.764012) can0 320#0000000000080033
(2.764645) can0 3bb#01000000
(2.766765) can0 399#00000000000000
(2.769907) can0 020#0000072b
(2.770156) can0 0b4#00000000000000bc
(2.770394) can0 025#0ff80fff787878aa
(2.770638) can0 024#020001fe41ff80ed
(2.773927) can0 127#0010000800014790
(2.774121) can0 245#000000004c
(2.775939) can0 247#0600ff0000
(2.776185) can0 224#2000000001cd0008
(2.776998) can0 3f9#702c5602000000f8
(2.778946) can0 353#0000
(2.779283) can0 260#000000000000006a
(2.779525) can0 610#20000064c0fffd40
(2.782033) can0 020#0000072b
(2.782264) can0 230#0000000400003d
(2.782503) can0 025#0ff80fff787878aa
(2.782746) can0 024#020001fe41ff80ed
(2.783084) can0 361#80000000
(2.784960) can0 1c4#00000000000000cd
(2.788138) can0 2a4#00000000ab
(2.790306) can0 127#0010000800014790
(2.794128) can0 020#0000072b
(2.794377) can0 0b4#00000000000000bc
(2.794621) can0 024#020001fe41ff80ed
(2.794859) can0 025#0ff80fff787878aa
(2.797416) can0 245#000000004c
(2.799246) can0 260#000000000000006a
(2.799482) can0 247#0600ff0000
(2.800258) can0 224#2000000001cd0008
(2.806075) can0 633#8100000000000000
(2.806245) can0 020#0000072b
(2.806475) can0 230#0000000400003d
(2.806719) can0 024#020001fe41ff80ed
(2.806962) can0 025#0ff80fff828282c8
(2.807206) can0 127#0010000800014790
(2.808503) can0 1c4#00000000000000cd
(2.812377) can0 320#0000000000080033
(2.818323) can0 020#0000072b
(2.818567) can0 0b4#00000000000000bc
(2.818810) can0 025#0ff80fff787878aa
(2.819204) can0 260#000000000000006a
(2.819552) can0 024#020001fe420080ef
(2.821000) can0 245#000000004c
(2.823088) can0 127#0010000800014790
(2.823265) can0 247#0600ff0000
(2.824436) can0 224#2000000001cd0008
(2.830379) can0 020#0000072b
(2.830609) can0 230#0000000400003d
(2.830845) can0 025#0ff80fff787878aa
(2.831548) can0 024#020001fe420080ef
(2.832101) can0 1c4#00000000000000cd
(2.834010) can0 3d3#0000
(2.836421) can0 2a4#00000000ab
(2.839171) can0 260#000000000000006a
(2.839455) can0 127#0010000800014790
(2.842443) can0 020#0000072b
(2.842685) can0 0b4#00000000000000bc
(2.842929) can0 025#0ff80fff787878aa
(2.843551) can0 024#020001fe420080ef
(2.844530) can0 245#000000004c
(2.845793) can0 6c0#e40080a000000000
(2.846576) can0 247#0600ff0000
(2.847568) can0 361#80000000
(2.848599) can0 224#2000000001cd0008
(2.854293) can0 3a0#000000000000003d
(2.854487) can0 020#0000072b
(2.854712) can0 230#0000000400003d
(2.854996) can0 025#0ff80fff787878aa
(2.855544) can0 024#020001fe420080ef
(2.855783) can0 1c4#00000000000000cd
(2.856027) can0 127#0010000800014790
(2.859229) can0 260#000000000000006a
(2.859943) can0 45c#4002002101000000
(2.860704) can0 320#0000000000080033
(2.860945) can0 3b7#0000000000000008
(2.866613) can0 020#0000072b
(2.866859) can0 0b4#00000000000000bc
(2.867096) can0 025#0ff80fff787878aa
(2.867528) can0 024#020001fe420080ef
(2.868044) can0 245#000000004c
(2.870115) can0 247#0600ff0000
(2.871836) can0 621#1100000000000000
(2.872196) can0 127#0010000800014790
(2.872777) can0 224#2000000001cd0008
(2.878727) can0 020#0000072b
(2.878957) can0 230#0000000400003d
(2.879193) can0 025#0ff80fff787878aa
(2.879442) can0 1c4#00000000000000cd
(2.879684) can0 024#020001fe420080ef
(2.879931) can0 260#000000000000006a
(2.884759) can0 2a4#00000000ab
(2.885958) can0 3b1#0000020a00080000
(2.886324) can0 4c1#0100000200000000
(2.886843) can0 623#1900000000000000
(2.888576) can0 127#0010000800014790
(2.890775) can0 020#0000072b
(2.891026) can0 0b4#00000000000000bc
(2.891263) can0 025#0ff80fff787878aa
(2.891521) can0 024#020001fe420080ef
(2.891707) can0 245#000000004c
(2.893648) can0 247#0600ff0000
(2.896934) can0 224#2000000001cd0008
(2.897153) can0 4c3#0300000100000000
(2.899178) can0 260#000000000000006a
(2.901834) can0 624#1a00574949400000
(2.902722) can0 1c4#00000000000000cd
(2.902880) can0 020#0000072b
(2.903119) can0 230#0000000400003d
(2.903355) can0 025#0ff80fff787878aa
(2.903597) can0 024#020101fe420080f0
(2.904964) can0 127#0010000800014790
(2.909055) can0 320#0000000000080033
(2.912071) can0 361#80000000
(2.915059) can0 020#0000072b
(2.915310) can0 0b4#00000000000000bc
(2.915548) can0 025#0ff80fff787878aa
(2.915783) can0 024#020101fe420080f0
(2.915974) can0 245#000000004c
(2.916213) can0 498#c100000049460000
(2.916885) can0 638#13001f0000000000
(2.917195) can0 247#0600ff0000
(2.918089) can0 49c#40100ca800503800
(2.919236) can0 260#000000000000006a
(2.920138) can0 4a7#00006c25000500c8
(2.921252) can0 224#2000000001cd0008
(2.921496) can0 127#0010000800014790
(2.922188) can0 4ad#0000005d9d000460
(2.926304) can0 1c4#00000000000000cd
(2.926830) can0 620#1000fffff0000000
(2.927287) can0 020#0000072b
(2.927521) can0 230#0000000400003d
(2.927747) can0 025#0ff80fff787878aa
(2.928526) can0 024#020101fe420080f0
(2.933367) can0 2a4#00000000ab
(2.936849) can0 63b#16003a6400000136
(2.937725) can0 127#0010000800014790
(2.938708) can0 245#000000004c
(2.939188) can0 260#000000000000006a
(2.939405) can0 020#0000072b
(2.939651) can0 0b4#00000000000000bc
(2.939893) can0 025#0ff80fff828282c8
(2.940545) can0 024#020101fe420080f0
(2.940745) can0 247#0600ff0000
(2.945573) can0 224#2000000001cd0008
(2.946829) can0 63c#98004e4850130060
(2.949844) can0 1c4#00000000000000cd
(2.951468) can0 020#0000072b
(2.951700) can0 230#0000000400003d
(2.951937) can0 025#0ff80fff787878aa
(2.952536) can0 024#020101fe420080f0
(2.953298) can0 3a0#000000000000003d
(2.954107) can0 127#0010000800014790
(2.956825) can0 63d#99004348584e4200
(2.957721) can0 320#0000000000080033
(2.959170) can0 260#000000000000006a
(2.961829) can0 440#4202001000000000
(2.962234) can0 245#000000004c
(2.963722) can0 020#0000072b
(2.963967) can0 0b4#00000000000000bc
(2.964207) can0 025#0ff80fff787878aa
(2.964400) can0 247#0600ff0000
(2.964635) can0 024#020101fe420080f0
(2.966521) can0 4ac#98000000cd0003a0
(2.966843) can0 680#d800010000000000
(2.969865) can0 224#2000000001cd0008
(2.970486) can0 127#0010000800014790
(2.971805) can0 4a6#0000000024242400
(2.973424) can0 1c4#00000000000000cd
(2.975807) can0 020#0000072b
(2.976036) can0 230#0000000400003d
(2.976271) can0 025#0ff80fff787878aa
(2.976511) can0 024#020101fe420080f0
(2.976688) can0 361#80000000
(2.979196) can0 260#000000000000006a
(2.981951) can0 2a4#00000000ab
(2.985804) can0 245#000000004c
(2.986865) can0 127#0010000800014790
(2.987843) can0 247#0600ff0000
(2.988006) can0 020#0000072b
(2.988258) can0 0b4#00000000000000bc
(2.988502) can0 025#0ff80fff787878aa
(2.988741) can0 024#020101fe420080f0
(2.994010) can0 224#2000000001cd0008
(2.996956) can0 1c4#00000000000000cd
(2.999164) can0 260#000000000000006a
(2.999916) can0 020#0000072b
(3.000144) can0 230#0000000400003d
(3.000382) can0 025#0ff80fff787878aa
(3.000626) can0 024#020101fe41ff80ee
(3.003249) can0 127#0010000800014790
(3.006144) can0 320#0000000000080033
(3.009365) can0 245#000000004c
(3.011391) can0 247#0600ff0000
(3.012099) can0 020#0000072b
(3.012348) can0 0b4#00000000000000bc
(3.012590) can0 024#020101fe41ff80ee
(3.012829) can0 025#0ff80fff787878aa
(3.014069) can0 394#0000
(3.018217) can0 224#2000000001cd0008
(3.019151) can0 260#000000000000006a
(3.019622) can0 127#0010000800014790
(3.020502) can0 1c4#00000000000000cd
(3.021695) can0 499#d3002500000007f0
(3.022684) can0 49a#0013260059602278
(3.024208) can0 020#0000072b
(3.024443) can0 230#0000000400003d
(3.024673) can0 024#020101fe41ff80ee
(3.024909) can0 025#0ff80fff787878aa
(3.025786) can0 49b#00a0242000004000
(3.026734) can0 39b#0004001000
(3.026982) can0 3f9#702c5602000000f8
(3.027797) can0 49d#5f5f01cc971de657
(3.028738) can0 353#0000
(3.029891) can0 4a8#0006600000000004
(3.030275) can0 2a4#00000000ab
(3.030882) can0 4ae#008000c001280248
(3.032903) can0 245#000000004c
(3.033131) can0 4af#0042d00000000000
(3.034927) can0 247#0600ff0000
(3.036008) can0 127#0010000800014790
(3.036284) can0 020#0000072b
(3.036538) can0 0b4#00000000000000bc
(3.036781) can0 025#0ff80fff787878aa
(3.037512) can0 024#020101fe41ff80ee
(3.039388) can0 260#000000000000006a
(3.041068) can0 361#80000000
(3.042427) can0 224#2000000001cd0008
(3.042970) can0 38a#0000000000
(3.044048) can0 1c4#00000000000000cd
(3.048341) can0 020#0000072b
(3.048565) can0 230#0000000400003d
(3.048800) can0 025#0ff80fff828282c8
(3.049507) can0 024#020101fe41ff80ee
(3.052389) can0 127#0010000800014790
(3.053395) can0 38b#00000000ac1900
(3.054565) can0 320#0000000000080033
(3.055318) can0 3a0#000000000000003d
(3.055573) can0 421#0000000000000000
(3.056412) can0 245#000000004c
(3.058520) can0 247#0600ff0000
(3.059126) can0 260#000000000000006a
(3.059364) can0 442#4d02000002000000
(3.060494) can0 020#0000072b
(3.060745) can0 0b4#00000000000000bc
(3.060980) can0 025#0ff80fff787878aa
(3.061505) can0 024#020101fe41ff80ee
(3.066706) can0 224#2000000001cd0008
(3.067616) can0 1c4#00000000000000cd
(3.068757) can0 127#0010000800014790
(3.072697) can0 020#0000072b
(3.072912) can0 230#0000000400003d
(3.073153) can0 025#0ff80fff787878aa
(3.073496) can0 024#020101fe41ff80ee
(3.078753) can0 2a4#00000000ab
(3.079123) can0 260#000000000000006a
(3.079958) can0 245#000000004c
(3.081258) can0 630#1700000000000000
(3.082031) can0 247#0600ff0000
(3.084752) can0 020#0000072b
(3.084972) can0 0b4#00000000000000bc
(3.085215) can0 025#0ff80fff787878aa
(3.085463) can0 127#0010000800014790
(3.085706) can0 024#020101fe41ff80ee
(3.090139) can0 632#8000000000000000
(3.090882) can0 224#2000000001cd0008
(3.091144) can0 1c4#00000000000000cd
(3.096777) can0 020#0000072b
(3.096990) can0 230#0000000400003d
(3.097232) can0 025#0ff80fff787878aa
(3.097503) can0 024#020101fe41ff80ee
(3.099172) can0 260#000000000000006a
(3.099408) can0 635#8300000000000000
(3.101525) can0 127#0010000800014790
(3.101790) can0 626#1c00000000000000
(3.102979) can0 320#0000000000080033
(3.103532) can0 245#000000004c
(3.105563) can0 247#0600ff0000
(3.105721) can0 361#80000000
(3.108841) can0 020#0000072b
(3.109065) can0 0b4#00000000000000bc
(3.109309) can0 025#0ff80fff787878aa
(3.109551) can0 024#020101fe41ff80ee
(3.109794) can0 4a0#06b7000000000000
(3.110037) can0 4a1#0000807f80a0d202
(3.110268) can0 4a2#530000a94656bc03
(3.114729) can0 1c4#00000000000000cd
(3.114994) can0 224#2000000001cd0008
(3.117901) can0 127#0010000800014790
(3.119165) can0 260#000000000000006a
(3.120904) can0 020#0000072b
(3.121133) can0 230#0000000400003d
(3.121370) can0 025#0ff80fff787878aa
(3.121611) can0 024#020101fe41ff80ee
(3.127076) can0 245#000000004c
(3.127237) can0 2a4#00000000ab
(3.129100) can0 247#0600ff0000
(3.129339) can0 611#21000012000184e0
(3.133127) can0 020#0000072b
(3.133362) can0 0b4#00000000000000bc
(3.133610) can0 024#020101fe41ff80ee
(3.133843) can0 025#0ff80fff787878aa
(3.134267) can0 127#0010000800014790
(3.138263) can0 1c4#00000000000000cd
(3.139130) can0 260#000000000000006a
(3.139368) can0 224#2000000001cc0008
(3.145265) can0 020#0000072b
(3.145464) can0 230#0000000400003d
(3.145719) can0 025#0ff80fff828282c8
(3.145969) can0 6c0#e40080a000000000
(3.146490) can0 024#020101fe41ff80ee
(3.150659) can0 127#0010000800014790
(3.150837) can0 245#000000004c
(3.151463) can0 320#0000000000080033
(3.152673) can0 247#0600ff0000
(3.154321) can0 3a0#000000000000003d
(3.156241) can0 44d#5c02001101000000
(3.157348) can0 020#0000072b
(3.157598) can0 0b4#00000000000000bc
(3.157836) can0 025#0ff80fff787878aa
(3.158503) can0 024#020101fe41ff80ee
(3.159171) can0 260#000000000000006a
(3.161825) can0 1c4#00000000000000cd
(3.163573) can0 224#2000000001cd0008
(3.163825) can0 3b7#0000000000000008
(3.167040) can0 127#0010000800014790
(3.169616) can0 020#0000072b
(3.169842) can0 230#0000000400003d
(3.170077) can0 025#0ff80fff787878aa
(3.170242) can0 361#80000000
(3.170500) can0 024#020101fe41ff80ee
(3.174155) can0 245#000000004c
(3.175768) can0 2a4#00000000ab
(3.176204) can0 247#0600ff0000
(3.179096) can0 260#000000000000006a
(3.181336) can0 4dc#1d00001000000000
(3.181735) can0 020#0000072b
(3.181989) can0 0b4#00000000000000bc
(3.182221) can0 025#0ff80fff787878aa
(3.182485) can0 024#020101fe41ff80ee
(3.183406) can0 127#0010000800014790
(3.185368) can0 1c4#00000000000000cd
(3.188022) can0 224#2000000001cd0008
(3.194104) can0 020#0000072b
(3.194306) can0 230#0000000400003d
(3.194562) can0 024#020101fe41ff80ee
(3.194802) can0 025#0ff80fff787878aa
(3.197714) can0 245#000000004c
(3.199093) can0 260#000000000000006a
(3.199786) can0 127#0010000800014790
(3.199983) can0 247#0600ff0000
(3.200329) can0 320#0000000000080033
(3.206282) can0 020#0000072b
(3.206521) can0 0b4#00000000000000bc
(3.206758) can0 025#0ff80fff787878aa
(3.207481) can0 024#020101fe41ff80ee
(3.208930) can0 1c4#00000000000000cd
(3.211457) can0 423#00
(3.212430) can0 224#2000000001cd0008
(3.216170) can0 127#0010000800014790
(3.218366) can0 020#0000072b
(3.218568) can0 230#0000000400003d
(3.218820) can0 025#0ff80fff828282c8
(3.219155) can0 260#000000000000006a
(3.219484) can0 024#020101fe41ff80ee
(3.221235) can0 245#000000004c
(3.221762) can0 620#1000fffff0000000
(3.223291) can0 247#0600ff0000
(3.224473) can0 2a4#00000000ab
(3.230541) can0 020#0000072b
(3.230767) can0 0b4#00000000000000bc
(3.231011) can0 025#0ff80fff787878aa
(3.231482) can0 024#020101fe420080f0
(3.232461) can0 1c4#00000000000000cd
(3.232704) can0 127#001000080001468f
(3.234536) can0 361#80000000
(3.236705) can0 224#2000000001cd0008
(3.239103) can0 260#000000000000006a
(3.242671) can0 020#0000072b
(3.242898) can0 230#0000000400003d
(3.243133) can0 025#0ff80fff787878aa
(3.243471) can0 024#020101fe420080f0
(3.244774) can0 245#000000004c
(3.246866) can0 247#0600ff0000
(3.248810) can0 320#0000000000080033
(3.249043) can0 127#001000080001468f
(3.254681) can0 020#0000072b
(3.254925) can0 0b4#00000000000000bc
(3.255178) can0 025#0ff80fff787878aa
(3.255469) can0 024#020101fe420080f0
(3.256027) can0 1c4#00000000000000cd
(3.256331) can0 3a0#000000000000003d
(3.259103) can0 260#000000000000006a
(3.259761) can0 45c#4002002101000000
(3.260855) can0 224#2000000001cd0008
(3.265303) can0 127#001000080001468f
(3.266766) can0 020#0000072b
(3.266993) can0 230#0000000400003d
(3.267221) can0 025#0ff80fff787878aa
(3.267471) can0 024#020101fe420080f0
(3.268313) can0 245#000000004c
(3.270381) can0 247#0600ff0000
(3.272903) can0 2a4#00000000ab
(3.276579) can0 3f9#702c5602000000f8
(3.278507) can0 353#0000
(3.278954) can0 020#0000072b
(3.279200) can0 0b4#00000000000000bc
(3.279439) can0 025#0ff80fff787878aa
(3.279676) can0 024#020101fe420080f0
(3.279923) can0 1c4#00000000000000cd
(3.280169) can0 260#000000000000006a
(3.280413) can0 420#00000000fdfe80a7
(3.280665) can0 610#20000064c0fffd40
(3.281682) can0 127#001000080001468f
(3.285185) can0 224#2000000001cd0008
(3.286751) can0 622#1200883000000000
(3.289905) can0 4dd#1e00110200000000
(3.291130) can0 020#0000072b
(3.291334) can0 230#0000000400003d
(3.291596) can0 024#020101fe420080f0
(3.291854) can0 025#0ff80fff787878aa
(3.292014) can0 245#000000004c
(3.293905) can0 247#0600ff0000
(3.297289) can0 320#0000000000080033
(3.298038) can0 127#001000080001468f
(3.299068) can0 260#000000000000006a
(3.300026) can0 361#80000000
(3.303115) can0 1c4#00000000000000cd
(3.303285) can0 020#0000072b
(3.303533) can0 0b4#00000000000000bc
(3.303775) can0 025#0ff80fff828282c8
(3.304443) can0 024#020101fe420080f0
(3.309339) can0 224#2000000001cd0008
(3.313818) can0 394#0000
(3.314423) can0 127#001000080001468f
(3.315265) can0 020#0000072b
(3.315495) can0 230#0000000400003d
(3.315733) can0 025#0ff80fff787878aa
(3.315917) can0 245#000000004c
(3.316449) can0 024#020101fe420080f0
(3.317434) can0 247#0600ff0000
(3.319070) can0 260#000000000000006a
(3.321369) can0 2a4#00000000ab
(3.326662) can0 1c4#00000000000000cd
(3.327414) can0 020#0000072b
(3.327656) can0 0b4#00000000000000bc
(3.327883) can0 025#0ff80fff787878aa
(3.328441) can0 024#020001fe420080ef
(3.330804) can0 127#0010000800014790
(3.333558) can0 224#2000000001cd0008
(3.338936) can0 245#000000004c
(3.339176) can0 260#000000000000006a
(3.339539) can0 020#0000072b
(3.339770) can0 230#0000000400003d
(3.340018) can0 025#0ff80fff787878aa
(3.340442) can0 024#020001fe420080ef
(3.341005) can0 247#0600ff0000
(3.345741) can0 320#0000000000080033
(3.347198) can0 127#0010000800014790
(3.350244) can0 1c4#00000000000000cd
(3.351634) can0 020#0000072b
(3.351869) can0 0b4#00000000000000bc
